(1517155764.191254) can0 06314000#4000000000000000
(1517155764.200196) can0 04394000#000000EC
(1517155764.231232) can0 04214001#0081908400000000
(1517155764.234091) can0 04294001#030300003D000000
(1517155764.260828) can0 04214006#0000000000000000
(1517155764.272571) can0 0621401A#0005010080000000
(1517155764.278264) can0 0C114003#05584F01220043C0
(1517155764.281103) can0 04214001#0081908400000000
(1517155764.283963) can0 04294001#030300003D000000
(1517155764.300101) can0 04394000#000000EC
(1517155764.330927) can0 04214001#0081908400000000
(1517155764.333857) can0 04294001#030300003D000000
(1517155764.360690) can0 04214006#0000000000000000
(1517155764.378370) can0 0C2D4003#1CF7020000000000
(1517155764.381209) can0 04214001#0081908400000000
(1517155764.384102) can0 04294001#030300003D000000
(1517155764.386880) can0 0E094000#001E0400106B
(1517155764.388659) can0 0E094021#001E
(1517155764.391003) can0 0E09401A#000E
(1517155764.392777) can0 0E094003#000E
(1517155764.396790) can0 0E094005#0002
(1517155764.399769) can0 04394000#000000EC
(1517155764.410384) can0 02214000#000000000000
(1517155764.420547) can0 06214000#2104480000350B00
(1517155764.430880) can0 04214001#0081908400000000
(1517155764.433753) can0 04294001#030300003D000000
(1517155764.435991) can0 06254000#00000000
(1517155764.440496) can0 06314000#4000000000000000
(1517155764.449906) can0 063D4000#8B4E0000
(1517155764.460381) can0 04214006#0000000000000000
(1517155764.462179) can0 06354000#0000
(1517155764.470684) can0 02294000#0000000002000000
(1517155764.478316) can0 0C394003#019100920A000000
(1517155764.481166) can0 04214001#0081908400000000
(1517155764.484014) can0 04294001#030300003D000000
(1517155764.499573) can0 04394000#000000EC
(1517155764.521982) can0 0621401A#0005010080000000
(1517155764.530524) can0 04214001#0081908400000000
(1517155764.533414) can0 04294001#030300003D000000
(1517155764.560163) can0 04214006#0000000000000000
(1517155764.572694) can0 06314005#0400000000000000
(1517155764.578326) can0 06314003#2010700002080000
(1517155764.581167) can0 04214001#0081908400000000
(1517155764.584027) can0 04294001#030300003D000000
(1517155764.599362) can0 04394000#000000EC
(1517155764.630449) can0 04214001#0081908400000000
(1517155764.633301) can0 04294001#030300003D000000
(1517155764.659575) can0 02214000#000000000000
(1517155764.662488) can0 04214006#0000000000000000
(1517155764.670150) can0 06214000#2104480000350B00
(1517155764.679920) can0 04214001#0081908400000000
(1517155764.682778) can0 04294001#030300003D000000
(1517155764.684976) can0 06254000#00000000
(1517155764.690239) can0 06314000#4000000000000000
(1517155764.696694) can0 06314021#0000000000000080
(1517155764.699213) can0 04394000#000000EC
(1517155764.730144) can0 04214001#0081908400000000
(1517155764.732998) can0 04294001#030300003D000000
(1517155764.759743) can0 04214006#0000000000000000
(1517155764.772097) can0 0621401A#0005010080000000
(1517155764.779749) can0 04214001#0081908400000000
(1517155764.782606) can0 04294001#030300003D000000
(1517155764.799024) can0 04394000#000000EC
(1517155764.829868) can0 04214001#0081908400000000
(1517155764.832722) can0 04294001#030300003D000000
(1517155764.859554) can0 04214006#0000000000000000
(1517155764.877915) can0 0C214003#163202082019
(1517155764.880746) can0 04214001#0081908400000000
(1517155764.883606) can0 04294001#030300003D000000
(1517155764.898703) can0 04394000#000000EC
(1517155764.909318) can0 02214000#000000000000
(1517155764.919393) can0 06214000#2104480000350B00
(1517155764.929668) can0 04214001#0081908400000000
(1517155764.932520) can0 04294001#030300003D000000
(1517155764.934718) can0 06254000#00000000
(1517155764.939438) can0 06314000#4000000000000000
(1517155764.948878) can0 063D4000#8B4E0000
(1517155764.959407) can0 04214006#0000000000000000
(1517155764.961207) can0 06354000#0000
(1517155764.971923) can0 0A194005#A0F41054C92800
(1517155764.978275) can0 0C014003#0551D7E088C80000
(1517155764.981121) can0 04214001#0081908400000000
(1517155764.983971) can0 04294001#030300003D000000
(1517155764.986833) can0 08094021#0017487800000000
(1517155764.998493) can0 04394000#000000EC
(1517155765.021455) can0 0621401A#0005010080000000
(1517155765.023923) can0 0A114005#5A03F2000000
(1517155765.029461) can0 04214001#0081908400000000
(1517155765.032316) can0 04294001#030300003D000000
(1517155765.035216) can0 0A014021#4000000000000002
(1517155765.053884) can0 0A014021#5000000000000002
(1517155765.059134) can0 04214006#0000000000000000
(1517155765.072126) can0 06314005#0400000000000000
(1517155765.078339) can0 06314003#2010700002080000
(1517155765.081191) can0 04214001#0081908400000000
(1517155765.084037) can0 04294001#030300003D000000
(1517155765.098276) can0 04394000#000000EC
(1517155765.129200) can0 04214001#0081908400000000
(1517155765.132053) can0 04294001#030300003D000000
(1517155765.158539) can0 02214000#000000000000
(1517155765.161466) can0 04214006#0000000000000000
(1517155765.169096) can0 06214000#2104480000350B00
(1517155765.178234) can0 0C194003#0558386118086FD0
(1517155765.181074) can0 04214001#0081908400000000
(1517155765.183931) can0 04294001#030300003D000000
(1517155765.186130) can0 06254000#00000000
(1517155765.189335) can0 06314000#4000000000000000
(1517155765.198062) can0 04394000#000000EC
(1517155765.229015) can0 04214001#0081908400000000
(1517155765.231867) can0 04294001#030300003D000000
(1517155765.258741) can0 04214006#0000000000000000
(1517155765.271526) can0 0621401A#0005010080000000
(1517155765.278260) can0 0C114003#05584F01220043C0
(1517155765.281106) can0 04214001#0081908400000000
(1517155765.283958) can0 04294001#030300003D000000
(1517155765.297858) can0 04394000#000000EC
(1517155765.328925) can0 04214001#0081908400000000
(1517155765.331796) can0 04294001#030300003D000000
(1517155765.358502) can0 04214006#0000000000000000
(1517155765.378369) can0 0C2D4003#1CF7020000000000
(1517155765.381207) can0 04214001#0081908400000000
(1517155765.384060) can0 04294001#030300003D000000
(1517155765.386617) can0 0E094000#001E0400106B
(1517155765.388398) can0 0E094021#001E
(1517155765.390281) can0 0E09401A#000E
(1517155765.392275) can0 0E094003#000E
(1517155765.395611) can0 0E094005#0002
(1517155765.397770) can0 04394000#000000EC
(1517155765.408292) can0 02214000#000000000000
(1517155765.418468) can0 06214000#2104480000350B00
(1517155765.428556) can0 04214001#0081908400000000
(1517155765.431424) can0 04294001#030300003D000000
(1517155765.433615) can0 06254000#00000000
(1517155765.438453) can0 06314000#4000000000000000
(1517155765.447814) can0 063D4000#8B4E0000
(1517155765.458309) can0 04214006#0000000000000000
(1517155765.460107) can0 06354000#0000
(1517155765.468598) can0 02294000#0000000002000000
(1517155765.478324) can0 0C394003#019100920A000000
(1517155765.481157) can0 04214001#0081908400000000
(1517155765.484035) can0 04294001#030300003D000000
(1517155765.497494) can0 04394000#000000EC
(1517155765.521231) can0 0621401A#0005010080000000
(1517155765.528341) can0 04214001#0081908400000000
(1517155765.531205) can0 04294001#030300003D000000
(1517155765.558112) can0 04214006#0000000000000000
(1517155765.571537) can0 06314005#0400000000000000
(1517155765.578287) can0 04214001#0081908400000000
(1517155765.581151) can0 04294001#030300003D000000
(1517155765.584006) can0 06314003#2010700002080000
(1517155765.597249) can0 04394000#000000EC
(1517155765.637965) can0 04214001#0081908400000000
(1517155765.640824) can0 04294001#030300003D000000
(1517155765.657495) can0 02214000#000000000000
(1517155765.660429) can0 04214006#0000000000000000
(1517155765.668065) can0 06214000#2104480000350B00
(1517155765.678146) can0 04214001#0081908400000000
(1517155765.680346) can0 06254000#00000000
(1517155765.688156) can0 04294001#030300003D000000
(1517155765.691121) can0 06314000#4000000000000000
(1517155765.697356) can0 06314021#0000000000000080
(1517155765.699516) can0 04394000#000000EC
(1517155765.737662) can0 04214001#0081908400000000
(1517155765.740541) can0 04294001#030300003D000000
(1517155765.757670) can0 04214006#0000000000000000
(1517155765.770637) can0 0621401A#0005010080000000
(1517155765.787863) can0 04214001#0081908400000000
(1517155765.790730) can0 04294001#030300003D000000
(1517155765.796941) can0 04394000#000000EC
(1517155765.837567) can0 04214001#0081908400000000
(1517155765.840437) can0 04294001#030300003D000000
(1517155765.857435) can0 04214006#0000000000000000
(1517155765.877895) can0 0C214003#163202082019
(1517155765.887551) can0 04214001#0081908400000000
(1517155765.890409) can0 04294001#030300003D000000
(1517155765.896620) can0 04394000#000000EC
(1517155765.907256) can0 02214000#000000000000
(1517155765.917236) can0 06214000#2104480000350B00
(1517155765.926851) can0 06254000#00000000
(1517155765.937187) can0 04214001#0081908400000000
(1517155765.940045) can0 04294001#030300003D000000
(1517155765.942978) can0 06314000#4000000000000000
(1517155765.946815) can0 063D4000#8B4E0000
(1517155765.957317) can0 04214006#0000000000000000
(1517155765.959110) can0 06354000#0000
(1517155765.970762) can0 0A194005#A0F41054C92800
(1517155765.978276) can0 0C014003#0551D7E088C80000
(1517155765.982543) can0 08094021#0017487800000000
(1517155765.987354) can0 04214001#0081908400000000
(1517155765.990218) can0 04294001#030300003D000000
(1517155765.996449) can0 04394000#000000EC
(1517155766.020744) can0 0621401A#0005010080000000
(1517155766.023221) can0 0A114005#5A03F2000000
(1517155766.031546) can0 0A014021#4000000000000002
(1517155766.037118) can0 04214001#0081908400000000
(1517155766.040018) can0 04294001#030300003D000000
(1517155766.050582) can0 0A014021#5000000000000002
(1517155766.057013) can0 04214006#0000000000000000
(1517155766.070943) can0 06314005#0400000000000000
(1517155766.078336) can0 06314003#2010700002080000
(1517155766.087178) can0 04214001#0081908400000000
(1517155766.090033) can0 04294001#030300003D000000
(1517155766.096189) can0 04394000#000000EC
(1517155766.136878) can0 04214001#0081908400000000
(1517155766.139768) can0 04294001#030300003D000000
(1517155766.156426) can0 02214000#000000000000
(1517155766.159341) can0 04214006#0000000000000000
(1517155766.167174) can0 06214000#2104480000350B00
(1517155766.176115) can0 06254000#00000000
(1517155766.178871) can0 0C194003#0558386118086FD0
(1517155766.186966) can0 04214001#0081908400000000
(1517155766.189832) can0 04294001#030300003D000000
(1517155766.192763) can0 06314000#4000000000000000
(1517155766.195980) can0 04394000#000000EC
(1517155766.236549) can0 04214001#0081908400000000
(1517155766.239402) can0 04294001#030300003D000000
(1517155766.256598) can0 04214006#0000000000000000
(1517155766.270123) can0 0621401A#0005010080000000
(1517155766.278258) can0 0C114003#05584F01220043C0
(1517155766.286740) can0 04214001#0081908400000000
(1517155766.289594) can0 04294001#030300003D000000
(1517155766.295769) can0 04394000#000000EC
(1517155766.336396) can0 04214001#0081908400000000
(1517155766.339251) can0 04294001#030300003D000000
(1517155766.356386) can0 04214006#0000000000000000
(1517155766.378346) can0 0C2D4003#1CF7020000000000
(1517155766.382658) can0 0E094000#001E0400106B
(1517155766.384476) can0 0E094005#0002
(1517155766.387315) can0 04214001#0081908400000000
(1517155766.390180) can0 04294001#030300003D000000
(1517155766.391953) can0 0E094003#000E
(1517155766.393712) can0 0E09401A#000E
(1517155766.395871) can0 04394000#000000EC
(1517155766.397651) can0 0E094021#001E
(1517155766.406333) can0 02214000#000000000000
(1517155766.416230) can0 06214000#2104480000350B00
(1517155766.425924) can0 06254000#00000000
(1517155766.436158) can0 04214001#0081908400000000
(1517155766.439011) can0 04294001#030300003D000000
(1517155766.441951) can0 06314000#4000000000000000
(1517155766.445808) can0 063D4000#8B4E0000
(1517155766.456309) can0 04214006#0000000000000000
(1517155766.458101) can0 06354000#0000
(1517155766.466644) can0 02294000#0000000002000000
(1517155766.478324) can0 0C394003#019100920A000000
(1517155766.486321) can0 04214001#0081908400000000
(1517155766.489175) can0 04294001#030300003D000000
(1517155766.495347) can0 04394000#000000EC
(1517155766.520229) can0 0621401A#0005010080000000
(1517155766.535982) can0 04214001#0081908400000000
(1517155766.538873) can0 04294001#030300003D000000
(1517155766.555949) can0 04214006#0000000000000000
(1517155766.570371) can0 06314005#0400000000000000
(1517155766.578325) can0 06314003#2010700002080000
(1517155766.586241) can0 04214001#0081908400000000
(1517155766.589104) can0 04294001#030300003D000000
(1517155766.595139) can0 04394000#000000EC
(1517155766.635741) can0 04214001#0081908400000000
(1517155766.638598) can0 04294001#030300003D000000
(1517155766.655478) can0 02214000#000000000000
(1517155766.658389) can0 04214006#0000000000000000
(1517155766.666070) can0 06214000#2104480000350B00
(1517155766.675046) can0 06254000#00000000
(1517155766.685956) can0 04214001#0081908400000000
(1517155766.688814) can0 04294001#030300003D000000
(1517155766.691752) can0 06314000#4000000000000000
(1517155766.694952) can0 04394000#000000EC
(1517155766.698051) can0 06314021#0000000000000080
(1517155766.735540) can0 04214001#0081908400000000
(1517155766.738391) can0 04294001#030300003D000000
(1517155766.755568) can0 04214006#0000000000000000
(1517155766.769974) can0 0621401A#0005010080000000
(1517155766.785724) can0 04214001#0081908400000000
(1517155766.788578) can0 04294001#030300003D000000
(1517155766.794720) can0 04394000#000000EC
(1517155766.835317) can0 04214001#0081908400000000
(1517155766.838175) can0 04294001#030300003D000000
(1517155766.855353) can0 04214006#0000000000000000
(1517155766.877893) can0 0C214003#163202082019
(1517155766.885648) can0 04214001#0081908400000000
(1517155766.888501) can0 04294001#030300003D000000
(1517155766.894524) can0 04394000#000000EC
(1517155766.905118) can0 02214000#000000000000
(1517155766.915213) can0 06214000#2104480000350B00
(1517155766.924863) can0 06254000#00000000
(1517155766.935144) can0 04214001#0081908400000000
(1517155766.937997) can0 04294001#030300003D000000
(1517155766.940941) can0 06314000#4000000000000000
(1517155766.944693) can0 063D4000#8B4E0000
(1517155766.955135) can0 04214006#0000000000000000
(1517155766.956931) can0 06354000#0000
(1517155766.969600) can0 0A194005#A0F41054C92800
(1517155766.978272) can0 0C014003#0551D7E088C80000
(1517155766.984272) can0 08094021#0017487800000000
(1517155766.987112) can0 04214001#0081908400000000
(1517155766.989976) can0 04294001#030300003D000000
(1517155766.994326) can0 04394000#000000EC
(1517155767.019668) can0 0621401A#0005010080000000
(1517155767.022137) can0 0A114005#5A03F2000000
(1517155767.033242) can0 0A014021#4000000000000002
(1517155767.036075) can0 04214001#0081908400000000
(1517155767.038930) can0 04294001#030300003D000000
(1517155767.052234) can0 0A014021#5000000000000002
(1517155767.055153) can0 04214006#0000000000000000
(1517155767.069782) can0 06314005#0400000000000000
(1517155767.078336) can0 06314003#2010700002080000
(1517155767.085237) can0 04214001#0081908400000000
(1517155767.088091) can0 04294001#030300003D000000
(1517155767.094255) can0 04394000#000000EC
(1517155767.134715) can0 04214001#0081908400000000
(1517155767.137568) can0 04294001#030300003D000000
(1517155767.154465) can0 02214000#000000000000
(1517155767.157377) can0 04214006#0000000000000000
(1517155767.164935) can0 06214000#2104480000350B00
(1517155767.173956) can0 06254000#00000000
(1517155767.178230) can0 0C194003#0558386118086FD0
(1517155767.185033) can0 04214001#0081908400000000
(1517155767.187885) can0 04294001#030300003D000000
(1517155767.190830) can0 06314000#4000000000000000
(1517155767.193941) can0 04394000#000000EC
(1517155767.234608) can0 04214001#0081908400000000
(1517155767.237460) can0 04294001#030300003D000000
(1517155767.254492) can0 04214006#0000000000000000
(1517155767.269359) can0 0621401A#0005010080000000
(1517155767.278237) can0 0C114003#05584F01220043C0
(1517155767.284733) can0 04214001#0081908400000000
(1517155767.287592) can0 04294001#030300003D000000
(1517155767.293694) can0 04394000#000000EC
(1517155767.334475) can0 04214001#0081908400000000
(1517155767.337368) can0 04294001#030300003D000000
(1517155767.354285) can0 04214006#0000000000000000
(1517155767.378346) can0 0C2D4003#1CF7020000000000
(1517155767.380884) can0 0E094000#001E0400106B
(1517155767.382677) can0 0E094021#001E
(1517155767.385516) can0 04214001#0081908400000000
(1517155767.388376) can0 04294001#030300003D000000
(1517155767.390165) can0 0E094003#000E
(1517155767.391954) can0 0E094005#0002
(1517155767.394113) can0 04394000#000000EC
(1517155767.395871) can0 0E09401A#000E
(1517155767.404088) can0 02214000#000000000000
(1517155767.414210) can0 06214000#2104480000350B00
(1517155767.424042) can0 06254000#00000000
(1517155767.434239) can0 04214001#0081908400000000
(1517155767.437091) can0 04294001#030300003D000000
(1517155767.440035) can0 06314000#4000000000000000
(1517155767.443608) can0 063D4000#8B4E0000
(1517155767.454093) can0 04214006#0000000000000000
(1517155767.455881) can0 06354000#0000
(1517155767.464438) can0 02294000#0000000002000000
(1517155767.478298) can0 0C394003#019100920A000000
(1517155767.484322) can0 04214001#0081908400000000
(1517155767.487173) can0 04294001#030300003D000000
(1517155767.493275) can0 04394000#000000EC
(1517155767.518788) can0 0621401A#0005010080000000
(1517155767.533882) can0 04214001#0081908400000000
(1517155767.536734) can0 04294001#030300003D000000
(1517155767.553891) can0 04214006#0000000000000000
(1517155767.569193) can0 06314005#0400000000000000
(1517155767.578326) can0 06314003#2010700002080000
(1517155767.584064) can0 04214001#0081908400000000
(1517155767.586922) can0 04294001#030300003D000000
(1517155767.593065) can0 04394000#000000EC
(1517155767.633703) can0 04214001#0081908400000000
(1517155767.636558) can0 04294001#030300003D000000
(1517155767.653276) can0 02214000#000000000000
(1517155767.656188) can0 04214006#0000000000000000
(1517155767.663909) can0 06214000#2104480000350B00
(1517155767.672939) can0 06254000#00000000
(1517155767.683874) can0 04214001#0081908400000000
(1517155767.686773) can0 04294001#030300003D000000
(1517155767.689714) can0 06314000#4000000000000000
(1517155767.692847) can0 04394000#000000EC
(1517155767.699670) can0 06314021#0000000000000080
(1517155767.733519) can0 04214001#0081908400000000
(1517155767.736371) can0 04294001#030300003D000000
(1517155767.753669) can0 04214006#0000000000000000
(1517155767.768527) can0 0621401A#0005010080000000
(1517155767.783746) can0 04214001#0081908400000000
(1517155767.786619) can0 04294001#030300003D000000
(1517155767.792781) can0 04394000#000000EC
(1517155767.833361) can0 04214001#0081908400000000
(1517155767.836234) can0 04294001#030300003D000000
(1517155767.853352) can0 04214006#0000000000000000
(1517155767.877893) can0 0C214003#163202082019
(1517155767.883544) can0 04214001#0081908400000000
(1517155767.886402) can0 04294001#030300003D000000
(1517155767.892524) can0 04394000#000000EC
(1517155767.903120) can0 02214000#000000000000
(1517155767.913255) can0 06214000#2104480000350B00
(1517155767.923289) can0 06254000#00000000
(1517155767.933165) can0 04214001#0081908400000000
(1517155767.936017) can0 04294001#030300003D000000
(1517155767.938971) can0 06314000#4000000000000000
(1517155767.942655) can0 063D4000#8B4E0000
(1517155767.953156) can0 04214006#0000000000000000
(1517155767.954955) can0 06354000#0000
(1517155767.968419) can0 0A194005#A0F41054C92800
(1517155767.978258) can0 0C014003#0551D7E088C80000
(1517155767.983336) can0 04214001#0081908400000000
(1517155767.986189) can0 04294001#030300003D000000
(1517155767.989050) can0 08094021#0017487800000000
(1517155767.992266) can0 04394000#000000EC
(1517155768.018246) can0 0621401A#0005010080000000
(1517155768.020723) can0 0A114005#5A03F2000000
(1517155768.032937) can0 04214001#0081908400000000
(1517155768.035790) can0 04294001#030300003D000000
(1517155768.038689) can0 0A014021#4000000000000002
(1517155768.052850) can0 04214006#0000000000000000
(1517155768.056883) can0 0A014021#5000000000000002
(1517155768.068610) can0 06314005#0400000000000000
(1517155768.078336) can0 06314003#2010700002080000
(1517155768.083248) can0 04214001#0081908400000000
(1517155768.086106) can0 04294001#030300003D000000
(1517155768.091989) can0 04394000#000000EC
(1517155768.132891) can0 04214001#0081908400000000
(1517155768.135783) can0 04294001#030300003D000000
(1517155768.152260) can0 02214000#000000000000
(1517155768.155172) can0 04214006#0000000000000000
(1517155768.163029) can0 06214000#2104480000350B00
(1517155768.171894) can0 06254000#00000000
(1517155768.178225) can0 0C194003#0558386118086FD0
(1517155768.182903) can0 04214001#0081908400000000
(1517155768.185761) can0 04294001#030300003D000000
(1517155768.188699) can0 06314000#4000000000000000
(1517155768.191783) can0 04394000#000000EC
(1517155768.232584) can0 04214001#0081908400000000
(1517155768.235436) can0 04294001#030300003D000000
(1517155768.252435) can0 04214006#0000000000000000
(1517155768.267959) can0 0621401A#0005010080000000
(1517155768.278239) can0 0C114003#05584F01220043C0
(1517155768.282535) can0 04214001#0081908400000000
(1517155768.285428) can0 04294001#030300003D000000
(1517155768.291571) can0 04394000#000000EC
(1517155768.332172) can0 04214001#0081908400000000
(1517155768.335024) can0 04294001#030300003D000000
(1517155768.352222) can0 04214006#0000000000000000
(1517155768.378343) can0 0C2D4003#1CF7020000000000
(1517155768.380882) can0 0E094000#001E0400106B
(1517155768.382675) can0 0E094021#001E
(1517155768.385513) can0 04214001#0081908400000000
(1517155768.388373) can0 04294001#030300003D000000
(1517155768.390157) can0 0E094003#000E
(1517155768.392310) can0 04394000#000000EC
(1517155768.394108) can0 0E094005#0002
(1517155768.395866) can0 0E09401A#000E
(1517155768.402110) can0 02214000#000000000000
(1517155768.412025) can0 06214000#2104480000350B00
(1517155768.422433) can0 06254000#00000000
(1517155768.431977) can0 04214001#0081908400000000
(1517155768.434829) can0 04294001#030300003D000000
(1517155768.437772) can0 06314000#4000000000000000
(1517155768.441591) can0 063D4000#8B4E0000
(1517155768.452026) can0 04214006#0000000000000000
(1517155768.453820) can0 06354000#0000
(1517155768.462382) can0 02294000#0000000002000000
(1517155768.478300) can0 0C394003#019100920A000000
(1517155768.482134) can0 04214001#0081908400000000
(1517155768.485012) can0 04294001#030300003D000000
(1517155768.491156) can0 04394000#000000EC
(1517155768.518122) can0 0621401A#0005010080000000
(1517155768.531762) can0 04214001#0081908400000000
(1517155768.534634) can0 04294001#030300003D000000
(1517155768.551852) can0 04214006#0000000000000000
(1517155768.568027) can0 06314005#0400000000000000
(1517155768.578307) can0 06314003#2010700002080000
(1517155768.582031) can0 04214001#0081908400000000
(1517155768.584884) can0 04294001#030300003D000000
(1517155768.590966) can0 04394000#000000EC
(1517155768.631567) can0 04214001#0081908400000000
(1517155768.634459) can0 04294001#030300003D000000
(1517155768.651417) can0 02214000#000000000000
(1517155768.654330) can0 04214006#0000000000000000
(1517155768.661786) can0 06214000#2104480000350B00
(1517155768.670809) can0 06254000#00000000
(1517155768.681822) can0 04214001#0081908400000000
(1517155768.684675) can0 04294001#030300003D000000
(1517155768.687633) can0 06314000#4000000000000000
(1517155768.690758) can0 04394000#000000EC
(1517155768.700297) can0 06314021#0000000000000080
(1517155768.731441) can0 04214001#0081908400000000
(1517155768.734338) can0 04294001#030300003D000000
(1517155768.761682) can0 04214006#0000000000000000
(1517155768.767478) can0 0621401A#0005010080000000
(1517155768.781651) can0 04214001#0081908400000000
(1517155768.784509) can0 04294001#030300003D000000
(1517155768.790551) can0 04394000#000000EC
(1517155768.831094) can0 04214001#0081908400000000
(1517155768.833963) can0 04294001#030300003D000000
(1517155768.861417) can0 04214006#0000000000000000
(1517155768.877872) can0 0C214003#163202082019
(1517155768.881357) can0 04214001#0081908400000000
(1517155768.884209) can0 04294001#030300003D000000
(1517155768.890351) can0 04394000#000000EC
(1517155768.900941) can0 02214000#000000000000
(1517155768.911022) can0 06214000#2104480000350B00
(1517155768.921737) can0 06254000#00000000
(1517155768.931077) can0 04214001#0081908400000000
(1517155768.933925) can0 04294001#030300003D000000
(1517155768.936863) can0 06314000#4000000000000000
(1517155768.940526) can0 063D4000#8B4E0000
(1517155768.949819) can0 06354000#0000
(1517155768.961192) can0 04214006#0000000000000000
(1517155768.967243) can0 0A194005#A0F41054C92800
(1517155768.978273) can0 0C014003#0551D7E088C80000
(1517155768.981108) can0 04214001#0081908400000000
(1517155768.983961) can0 04294001#030300003D000000
(1517155768.986820) can0 08094021#0017487800000000
(1517155768.990124) can0 04394000#000000EC
(1517155769.017238) can0 0621401A#0005010080000000
(1517155769.019709) can0 0A114005#5A03F2000000
(1517155769.030689) can0 04214001#0081908400000000
(1517155769.033540) can0 04294001#030300003D000000
(1517155769.036442) can0 0A014021#4000000000000002
(1517155769.054468) can0 0A014021#5000000000000002
(1517155769.061025) can0 04214006#0000000000000000
(1517155769.067430) can0 06314005#0400000000000000
(1517155769.078318) can0 06314003#2010700002080000
(1517155769.081151) can0 04214001#0081908400000000
(1517155769.084010) can0 04294001#030300003D000000
(1517155769.089931) can0 04394000#000000EC
(1517155769.130451) can0 04214001#0081908400000000
(1517155769.133303) can0 04294001#030300003D000000
(1517155769.150122) can0 02214000#000000000000
(1517155769.160777) can0 04214006#0000000000000000
(1517155769.163629) can0 06214000#2104480000350B00
(1517155769.169787) can0 06254000#00000000
(1517155769.178205) can0 0C194003#0558386118086FD0
(1517155769.181051) can0 04214001#0081908400000000
(1517155769.183943) can0 04294001#030300003D000000
(1517155769.186902) can0 06314000#4000000000000000
(1517155769.189822) can0 04394000#000000EC
(1517155769.230388) can0 04214001#0081908400000000
(1517155769.233240) can0 04294001#030300003D000000
(1517155769.260726) can0 04214006#0000000000000000
(1517155769.266879) can0 0621401A#0005010080000000
(1517155769.278245) can0 0C114003#05584F01220043C0
(1517155769.281085) can0 04214001#0081908400000000
(1517155769.283937) can0 04294001#030300003D000000
(1517155769.289515) can0 04394000#000000EC
(1517155769.330040) can0 04214001#0081908400000000
(1517155769.332893) can0 04294001#030300003D000000
(1517155769.360367) can0 04214006#0000000000000000
(1517155769.376438) can0 0E094000#001E0400106B
(1517155769.379311) can0 0C2D4003#1CF7020000000000
(1517155769.382150) can0 04214001#0081908400000000
(1517155769.385009) can0 04294001#030300003D000000
(1517155769.386788) can0 0E094003#000E
(1517155769.388586) can0 0E094005#0002
(1517155769.390751) can0 04394000#000000EC
(1517155769.392503) can0 0E09401A#000E
(1517155769.394282) can0 0E094021#001E
(1517155769.399903) can0 02214000#000000000000
(1517155769.410025) can0 06214000#2104480000350B00
(1517155769.420635) can0 06254000#00000000
(1517155769.429928) can0 04214001#0081908400000000
(1517155769.432785) can0 04294001#030300003D000000
(1517155769.435723) can0 06314000#4000000000000000
(1517155769.439482) can0 063D4000#8B4E0000
(1517155769.448758) can0 06354000#0000
(1517155769.460358) can0 02294000#0000000002000000
(1517155769.463272) can0 04214006#0000000000000000
(1517155769.478297) can0 0C394003#019100920A000000
(1517155769.481136) can0 04214001#0081908400000000
(1517155769.483988) can0 04294001#030300003D000000
(1517155769.489147) can0 04394000#000000EC
(1517155769.516982) can0 0621401A#0005010080000000
(1517155769.529739) can0 04214001#0081908400000000
(1517155769.532590) can0 04294001#030300003D000000
(1517155769.559976) can0 04214006#0000000000000000
(1517155769.566849) can0 06314005#0400000000000000
(1517155769.578309) can0 06314003#2010700002080000
(1517155769.581147) can0 04214001#0081908400000000
(1517155769.584006) can0 04294001#030300003D000000
(1517155769.588931) can0 04394000#000000EC
(1517155769.629411) can0 04214001#0081908400000000
(1517155769.632264) can0 04294001#030300003D000000
(1517155769.649062) can0 02214000#000000000000
(1517155769.659838) can0 04214006#0000000000000000
(1517155769.662709) can0 06214000#2104480000350B00
(1517155769.668745) can0 06254000#00000000
(1517155769.679601) can0 04214001#0081908400000000
(1517155769.682480) can0 04294001#030300003D000000
(1517155769.685417) can0 06314000#4000000000000000
(1517155769.688795) can0 04394000#000000EC
(1517155769.700961) can0 06314021#0000000000000080
(1517155769.729187) can0 04214001#0081908400000000
(1517155769.732040) can0 04294001#030300003D000000
(1517155769.759537) can0 04214006#0000000000000000
(1517155769.766680) can0 0621401A#0005010080000000
(1517155769.779399) can0 04214001#0081908400000000
(1517155769.782251) can0 04294001#030300003D000000
(1517155769.788469) can0 04394000#000000EC
(1517155769.829038) can0 04214001#0081908400000000
(1517155769.831887) can0 04294001#030300003D000000
(1517155769.859476) can0 04214006#0000000000000000
(1517155769.877881) can0 0C214003#163202082019
(1517155769.880718) can0 04214001#0081908400000000
(1517155769.883572) can0 04294001#030300003D000000
(1517155769.888331) can0 04394000#000000EC
(1517155769.898811) can0 02214000#000000000000
(1517155769.908865) can0 06214000#2104480000350B00
(1517155769.918535) can0 06254000#00000000
(1517155769.928790) can0 04214001#0081908400000000
(1517155769.931649) can0 04294001#030300003D000000
(1517155769.934587) can0 06314000#4000000000000000
(1517155769.938464) can0 063D4000#8B4E0000
(1517155769.947807) can0 06354000#0000
(1517155769.959102) can0 04214006#0000000000000000
(1517155769.966087) can0 0A194005#A0F41054C92800
(1517155769.978252) can0 0C014003#0551D7E088C80000
(1517155769.981085) can0 04214001#0081908400000000
(1517155769.983944) can0 04294001#030300003D000000
(1517155769.986803) can0 08094021#0017487800000000
(1517155769.988970) can0 04394000#000000EC
(1517155770.015923) can0 0A114005#5A03F2000000
(1517155770.018757) can0 0621401A#0005010080000000
(1517155770.028608) can0 04214001#0081908400000000
(1517155770.031471) can0 04294001#030300003D000000
(1517155770.035223) can0 0A014021#4000000000000002
(1517155770.054131) can0 0A014021#5000000000000002
(1517155770.058904) can0 04214006#0000000000000000
(1517155770.066275) can0 06314005#0400000000000000
(1517155770.078318) can0 06314003#2010700002080000
(1517155770.088527) can0 04214001#0081908400000000
(1517155770.091391) can0 04294001#030300003D000000
(1517155770.093543) can0 04394000#000000EC
(1517155770.128393) can0 04214001#0081908400000000
(1517155770.131252) can0 04294001#030300003D000000
(1517155770.148043) can0 02214000#000000000000
(1517155770.158672) can0 04214006#0000000000000000
(1517155770.161511) can0 06214000#2104480000350B00
(1517155770.167647) can0 06254000#00000000
(1517155770.178215) can0 0C194003#0558386118086FD0
(1517155770.181153) can0 06314000#4000000000000000
(1517155770.188542) can0 04214001#0081908400000000
(1517155770.191406) can0 04294001#030300003D000000
(1517155770.193560) can0 04394000#000000EC
(1517155770.228284) can0 04214001#0081908400000000
(1517155770.231149) can0 04294001#030300003D000000
(1517155770.258616) can0 04214006#0000000000000000
(1517155770.265807) can0 0621401A#0005010080000000
(1517155770.278226) can0 0C114003#05584F01220043C0
(1517155770.288075) can0 04214001#0081908400000000
(1517155770.290940) can0 04294001#030300003D000000
(1517155770.293094) can0 04394000#000000EC
(1517155770.327962) can0 04214001#0081908400000000
(1517155770.330840) can0 04294001#030300003D000000
(1517155770.358307) can0 04214006#0000000000000000
(1517155770.374341) can0 0E094000#001E0400106B
(1517155770.376173) can0 0E094021#001E
(1517155770.377953) can0 0E094003#000E
(1517155770.380858) can0 0C2D4003#1CF7020000000000
(1517155770.382650) can0 0E094005#0002
(1517155770.384608) can0 0E09401A#000E
(1517155770.388165) can0 04214001#0081908400000000
(1517155770.391031) can0 04294001#030300003D000000
(1517155770.393184) can0 04394000#000000EC
(1517155770.397842) can0 02214000#000000000000
(1517155770.407779) can0 06214000#2104480000350B00
(1517155770.417436) can0 06254000#00000000
(1517155770.427769) can0 04214001#0081908400000000
(1517155770.430674) can0 04294001#030300003D000000
(1517155770.433606) can0 06314000#4000000000000000
(1517155770.437363) can0 063D4000#8B4E0000
(1517155770.446765) can0 06354000#0000
(1517155770.458099) can0 02294000#0000000002000000
(1517155770.461013) can0 04214006#0000000000000000
(1517155770.478299) can0 0C394003#019100920A000000
(1517155770.487815) can0 04214001#0081908400000000
(1517155770.490671) can0 04294001#030300003D000000
(1517155770.492826) can0 04394000#000000EC
(1517155770.516033) can0 0621401A#0005010080000000
(1517155770.527539) can0 04214001#0081908400000000
(1517155770.530403) can0 04294001#030300003D000000
(1517155770.557875) can0 04214006#0000000000000000
(1517155770.565794) can0 06314005#0400000000000000
(1517155770.578311) can0 06314003#2010700002080000
(1517155770.587628) can0 04214001#0081908400000000
(1517155770.590495) can0 04294001#030300003D000000
(1517155770.592648) can0 04394000#000000EC
(1517155770.627491) can0 04214001#0081908400000000
(1517155770.630375) can0 04294001#030300003D000000
(1517155770.647024) can0 02214000#000000000000
(1517155770.657624) can0 04214006#0000000000000000
(1517155770.660461) can0 06214000#2104480000350B00
(1517155770.666612) can0 06254000#00000000
(1517155770.677633) can0 06314000#4000000000000000
(1517155770.687667) can0 04214001#0081908400000000
(1517155770.690526) can0 04294001#030300003D000000
(1517155770.692680) can0 04394000#000000EC
(1517155770.701620) can0 06314021#0000000000000080
(1517155770.727215) can0 04214001#0081908400000000
(1517155770.730072) can0 04294001#030300003D000000
(1517155770.757419) can0 04214006#0000000000000000
(1517155770.765324) can0 0621401A#0005010080000000
(1517155770.787341) can0 04214001#0081908400000000
(1517155770.790200) can0 04294001#030300003D000000
(1517155770.792352) can0 04394000#000000EC
(1517155770.827096) can0 04214001#0081908400000000
(1517155770.829960) can0 04294001#030300003D000000
(1517155770.857168) can0 04214006#0000000000000000
(1517155770.877867) can0 0C214003#163202082019
(1517155770.887257) can0 04214001#0081908400000000
(1517155770.890122) can0 04294001#030300003D000000
(1517155770.892313) can0 04394000#000000EC
(1517155770.896872) can0 02214000#000000000000
(1517155770.906733) can0 06214000#2104480000350B00
(1517155770.916387) can0 06254000#00000000
(1517155770.926769) can0 04214001#0081908400000000
(1517155770.929619) can0 04294001#030300003D000000
(1517155770.932555) can0 06314000#4000000000000000
(1517155770.936393) can0 063D4000#8B4E0000
(1517155770.945610) can0 06354000#0000
(1517155770.956991) can0 04214006#0000000000000000
(1517155770.964921) can0 0A194005#A0F41054C92800
(1517155770.978241) can0 0C014003#0551D7E088C80000
(1517155770.986942) can0 08094021#0017487800000000
(1517155770.989776) can0 04214001#0081908400000000
(1517155770.992632) can0 04294001#030300003D000000
(1517155770.994790) can0 04394000#000000EC
(1517155771.015016) can0 0621401A#0005010080000000
(1517155771.017486) can0 0A114005#5A03F2000000
(1517155771.026546) can0 04214001#0081908400000000
(1517155771.029402) can0 04294001#030300003D000000
(1517155771.035859) can0 0A014021#4000000000000002
(1517155771.054759) can0 0A014021#5000000000000002
(1517155771.057678) can0 04214006#0000000000000000
(1517155771.065230) can0 06314005#0400000000000000
(1517155771.078317) can0 06314003#2010700002080000
(1517155771.086852) can0 04214001#0081908400000000
(1517155771.089707) can0 04294001#030300003D000000
(1517155771.091862) can0 04394000#000000EC
(1517155771.126326) can0 04214001#0081908400000000
(1517155771.129192) can0 04294001#030300003D000000
(1517155771.146023) can0 02214000#000000000000
(1517155771.156558) can0 04214006#0000000000000000
(1517155771.159390) can0 06214000#2104480000350B00
(1517155771.165685) can0 06254000#00000000
(1517155771.176947) can0 06314000#4000000000000000
(1517155771.179701) can0 0C194003#0558386118086FD0
(1517155771.186137) can0 04214001#0081908400000000
(1517155771.189041) can0 04294001#030300003D000000
(1517155771.191194) can0 04394000#000000EC
(1517155771.226103) can0 04214001#0081908400000000
(1517155771.228977) can0 04294001#030300003D000000
(1517155771.256342) can0 04214006#0000000000000000
(1517155771.265093) can0 0621401A#0005010080000000
(1517155771.278239) can0 0C114003#05584F01220043C0
(1517155771.286455) can0 04214001#0081908400000000
(1517155771.289309) can0 04294001#030300003D000000
(1517155771.291465) can0 04394000#000000EC
(1517155771.325896) can0 04214001#0081908400000000
(1517155771.328748) can0 04294001#030300003D000000
(1517155771.356163) can0 04214006#0000000000000000
(1517155771.372293) can0 0E094000#001E0400106B
(1517155771.374088) can0 0E094021#001E
(1517155771.377225) can0 0E094003#000E
(1517155771.379026) can0 0E094005#0002
(1517155771.381903) can0 0C2D4003#1CF7020000000000
(1517155771.383661) can0 0E09401A#000E
(1517155771.386501) can0 04214001#0081908400000000
(1517155771.389385) can0 04294001#030300003D000000
(1517155771.391597) can0 04394000#000000EC
(1517155771.395816) can0 02214000#000000000000
(1517155771.405723) can0 06214000#2104480000350B00
(1517155771.415334) can0 06254000#00000000
(1517155771.425684) can0 04214001#0081908400000000
(1517155771.428562) can0 04294001#030300003D000000
(1517155771.431507) can0 06314000#4000000000000000
(1517155771.435359) can0 063D4000#8B4E0000
(1517155771.444559) can0 06354000#0000
(1517155771.455974) can0 02294000#0000000002000000
(1517155771.458929) can0 04214006#0000000000000000
(1517155771.478287) can0 0C394003#019100920A000000
(1517155771.485883) can0 04214001#0081908400000000
(1517155771.488742) can0 04294001#030300003D000000
(1517155771.490941) can0 04394000#000000EC
(1517155771.514522) can0 0621401A#0005010080000000
(1517155771.525473) can0 04214001#0081908400000000
(1517155771.528349) can0 04294001#030300003D000000
(1517155771.555700) can0 04214006#0000000000000000
(1517155771.564649) can0 06314005#0400000000000000
(1517155771.578309) can0 06314003#2010700002080000
(1517155771.585905) can0 04214001#0081908400000000
(1517155771.588758) can0 04294001#030300003D000000
(1517155771.590917) can0 04394000#000000EC
(1517155771.625303) can0 04214001#0081908400000000
(1517155771.628158) can0 04294001#030300003D000000
(1517155771.644996) can0 02214000#000000000000
(1517155771.655490) can0 04214006#0000000000000000
(1517155771.658324) can0 06214000#2104480000350B00
(1517155771.664540) can0 06254000#00000000
(1517155771.675561) can0 06314000#4000000000000000
(1517155771.685716) can0 04214001#0081908400000000
(1517155771.688569) can0 04294001#030300003D000000
(1517155771.690772) can0 04394000#000000EC
(1517155771.702293) can0 06314021#0000000000000080
(1517155771.725197) can0 04214001#0081908400000000
(1517155771.728055) can0 04294001#030300003D000000
(1517155771.755389) can0 04214006#0000000000000000
(1517155771.764638) can0 0621401A#0005010080000000
(1517155771.785342) can0 04214001#0081908400000000
(1517155771.788201) can0 04294001#030300003D000000
(1517155771.790364) can0 04394000#000000EC
(1517155771.825089) can0 04214001#0081908400000000
(1517155771.827941) can0 04294001#030300003D000000
(1517155771.855074) can0 04214006#0000000000000000
(1517155771.877874) can0 0C214003#163202082019
(1517155771.885169) can0 04214001#0081908400000000
(1517155771.888022) can0 04294001#030300003D000000
(1517155771.890186) can0 04394000#000000EC
(1517155771.894637) can0 02214000#000000000000
(1517155771.904695) can0 06214000#2104480000350B00
(1517155771.914275) can0 06254000#00000000
(1517155771.924873) can0 04214001#0081908400000000
(1517155771.927722) can0 04294001#030300003D000000
(1517155771.930666) can0 06314000#4000000000000000
(1517155771.934317) can0 063D4000#8B4E0000
(1517155771.943540) can0 06354000#0000
(1517155771.954956) can0 04214006#0000000000000000
(1517155771.963738) can0 0A194005#A0F41054C92800
(1517155771.978245) can0 0C014003#0551D7E088C80000
(1517155771.984462) can0 04214001#0081908400000000
(1517155771.987315) can0 04294001#030300003D000000
(1517155771.989475) can0 04394000#000000EC
(1517155771.992333) can0 08094021#0017487800000000
(1517155772.013556) can0 0A114005#5A03F2000000
(1517155772.016405) can0 0621401A#0005010080000000
(1517155772.024681) can0 04214001#0081908400000000
(1517155772.027541) can0 04294001#030300003D000000
(1517155772.036507) can0 0A014021#4000000000000002
(1517155772.054658) can0 04214006#0000000000000000
(1517155772.057531) can0 0A014021#5000000000000002
(1517155772.063949) can0 06314005#0400000000000000
(1517155772.078309) can0 06314003#2010700002080000
(1517155772.084721) can0 04214001#0081908400000000
(1517155772.087579) can0 04294001#030300003D000000
(1517155772.089745) can0 04394000#000000EC
(1517155772.124430) can0 04214001#0081908400000000
(1517155772.134501) can0 04294001#030300003D000000
(1517155772.143931) can0 02214000#000000000000
(1517155772.154452) can0 04214006#0000000000000000
(1517155772.157305) can0 06214000#2104480000350B00
(1517155772.163587) can0 06254000#00000000
(1517155772.174622) can0 06314000#4000000000000000
(1517155772.178197) can0 0C194003#0558386118086FD0
(1517155772.184080) can0 04214001#0081908400000000
(1517155772.186933) can0 04294001#030300003D000000
(1517155772.189133) can0 04394000#000000EC
(1517155772.234215) can0 04214001#0081908400000000
(1517155772.237068) can0 04294001#030300003D000000
(1517155772.254266) can0 04214006#0000000000000000
(1517155772.264050) can0 0621401A#0005010080000000
(1517155772.278215) can0 0C114003#05584F01220043C0
(1517155772.284372) can0 04214001#0081908400000000
(1517155772.287225) can0 04294001#030300003D000000
(1517155772.289385) can0 04394000#000000EC
(1517155772.334128) can0 04214001#0081908400000000
(1517155772.337020) can0 04294001#030300003D000000
(1517155772.354038) can0 04214006#0000000000000000
(1517155772.370010) can0 0E094000#001E0400106B
(1517155772.371782) can0 0E094021#001E
(1517155772.373562) can0 0E094003#000E
(1517155772.375320) can0 0E09401A#000E
(1517155772.378321) can0 0C2D4003#1CF7020000000000
(1517155772.380119) can0 0E094005#0002
(1517155772.383738) can0 04214001#0081908400000000
(1517155772.386596) can0 04294001#030300003D000000
(1517155772.388794) can0 04394000#000000EC
(1517155772.393592) can0 02214000#000000000000
(1517155772.403600) can0 06214000#2104480000350B00
(1517155772.413370) can0 06254000#00000000
(1517155772.423684) can0 06314000#4000000000000000
(1517155772.433821) can0 04214001#0081908400000000
(1517155772.436674) can0 04294001#030300003D000000
(1517155772.438848) can0 063D4000#8B4E0000
(1517155772.442554) can0 06354000#0000
(1517155772.453913) can0 02294000#0000000002000000
(1517155772.456826) can0 04214006#0000000000000000
(1517155772.478293) can0 0C394003#019100920A000000
(1517155772.483950) can0 04214001#0081908400000000
(1517155772.486802) can0 04294001#030300003D000000
(1517155772.488962) can0 04394000#000000EC
(1517155772.513820) can0 0621401A#0005010080000000
(1517155772.533585) can0 04214001#0081908400000000
(1517155772.536442) can0 04294001#030300003D000000
(1517155772.553641) can0 04214006#0000000000000000
(1517155772.563344) can0 06314005#0400000000000000
(1517155772.578301) can0 06314003#2010700002080000
(1517155772.583248) can0 04214001#0081908400000000
(1517155772.586159) can0 04294001#030300003D000000
(1517155772.588318) can0 04394000#000000EC
(1517155772.633402) can0 04214001#0081908400000000
(1517155772.636254) can0 04294001#030300003D000000
(1517155772.642838) can0 02214000#000000000000
(1517155772.653392) can0 06214000#2104480000350B00
(1517155772.663146) can0 04214006#0000000000000000
(1517155772.665339) can0 06254000#00000000
(1517155772.673581) can0 06314000#4000000000000000
(1517155772.683751) can0 04214001#0081908400000000
(1517155772.686629) can0 04294001#030300003D000000
(1517155772.688807) can0 04394000#000000EC
(1517155772.702933) can0 06314021#0000000000000080
(1517155772.733134) can0 04214001#0081908400000000
(1517155772.735991) can0 04294001#030300003D000000
(1517155772.763025) can0 04214006#0000000000000000
(1517155772.765874) can0 0621401A#0005010080000000
(1517155772.783393) can0 04214001#0081908400000000
(1517155772.786245) can0 04294001#030300003D000000
(1517155772.788422) can0 04394000#000000EC
(1517155772.832988) can0 04214001#0081908400000000
(1517155772.835841) can0 04294001#030300003D000000
(1517155772.862708) can0 04214006#0000000000000000
(1517155772.877854) can0 0C214003#163202082019
(1517155772.883133) can0 04214001#0081908400000000
(1517155772.885984) can0 04294001#030300003D000000
(1517155772.888142) can0 04394000#000000EC
(1517155772.892648) can0 02214000#000000000000
(1517155772.902544) can0 06214000#2104480000350B00
(1517155772.912165) can0 06254000#00000000
(1517155772.922749) can0 06314000#4000000000000000
(1517155772.932769) can0 04214001#0081908400000000
(1517155772.935624) can0 04294001#030300003D000000
(1517155772.937760) can0 063D4000#8B4E0000
(1517155772.941639) can0 06354000#0000
(1517155772.962596) can0 04214006#0000000000000000
(1517155772.965205) can0 0A194005#A0F41054C92800
(1517155772.978231) can0 0C014003#0551D7E088C80000
(1517155772.982922) can0 04214001#0081908400000000
(1517155772.985781) can0 04294001#030300003D000000
(1517155772.987938) can0 04394000#000000EC
(1517155772.990805) can0 08094021#0017487800000000
(1517155773.012381) can0 0A114005#5A03F2000000
(1517155773.015231) can0 0621401A#0005010080000000
(1517155773.032588) can0 04214001#0081908400000000
(1517155773.035460) can0 04294001#030300003D000000
(1517155773.038360) can0 0A014021#4000000000000002
(1517155773.057106) can0 0A014021#5000000000000002
(1517155773.062284) can0 04214006#0000000000000000
(1517155773.065194) can0 06314005#0400000000000000
(1517155773.078300) can0 06314003#2010700002080000
(1517155773.082719) can0 04214001#0081908400000000
(1517155773.085571) can0 04294001#030300003D000000
(1517155773.087770) can0 04394000#000000EC
(1517155773.132355) can0 04214001#0081908400000000
(1517155773.135228) can0 04294001#030300003D000000
(1517155773.141811) can0 02214000#000000000000
(1517155773.152439) can0 06214000#2104480000350B00
(1517155773.162074) can0 04214006#0000000000000000
(1517155773.164272) can0 06254000#00000000
(1517155773.172435) can0 06314000#4000000000000000
(1517155773.178189) can0 0C194003#0558386118086FD0
(1517155773.182752) can0 04214001#0081908400000000
(1517155773.185606) can0 04294001#030300003D000000
(1517155773.187786) can0 04394000#000000EC
(1517155773.232229) can0 04214001#0081908400000000
(1517155773.235082) can0 04294001#030300003D000000
(1517155773.261955) can0 04214006#0000000000000000
(1517155773.264806) can0 0621401A#0005010080000000
(1517155773.278212) can0 0C114003#05584F01220043C0
(1517155773.282223) can0 04214001#0081908400000000
(1517155773.285122) can0 04294001#030300003D000000
(1517155773.287281) can0 04394000#000000EC
(1517155773.332006) can0 04214001#0081908400000000
(1517155773.334857) can0 04294001#030300003D000000
(1517155773.361745) can0 04214006#0000000000000000
(1517155773.367962) can0 0E094000#001E0400106B
(1517155773.369744) can0 0E094021#001E
(1517155773.371779) can0 0E09401A#000E
(1517155773.373558) can0 0E094003#000E
(1517155773.376275) can0 0E094005#0002
(1517155773.379162) can0 0C2D4003#1CF7020000000000
(1517155773.382194) can0 04214001#0081908400000000
(1517155773.385174) can0 04294001#030300003D000000
(1517155773.387350) can0 04394000#000000EC
(1517155773.391676) can0 02214000#000000000000
(1517155773.401565) can0 06214000#2104480000350B00
(1517155773.411207) can0 06254000#00000000
(1517155773.421661) can0 06314000#4000000000000000
(1517155773.431796) can0 04214001#0081908400000000
(1517155773.434649) can0 04294001#030300003D000000
(1517155773.436787) can0 063D4000#8B4E0000
(1517155773.440511) can0 06354000#0000
(1517155773.451966) can0 02294000#0000000002000000
(1517155773.461576) can0 04214006#0000000000000000
(1517155773.478282) can0 0C394003#019100920A000000
(1517155773.481921) can0 04214001#0081908400000000
(1517155773.484813) can0 04294001#030300003D000000
(1517155773.486991) can0 04394000#000000EC
(1517155773.512432) can0 0621401A#0005010080000000
(1517155773.531602) can0 04214001#0081908400000000
(1517155773.534455) can0 04294001#030300003D000000
(1517155773.561248) can0 04214006#0000000000000000
(1517155773.564159) can0 06314005#0400000000000000
(1517155773.578299) can0 06314003#2010700002080000
(1517155773.581877) can0 04214001#0081908400000000
(1517155773.584776) can0 04294001#030300003D000000
(1517155773.586974) can0 04394000#000000EC
(1517155773.631277) can0 04214001#0081908400000000
(1517155773.634133) can0 04294001#030300003D000000
(1517155773.640711) can0 02214000#000000000000
(1517155773.651350) can0 06214000#2104480000350B00
(1517155773.661066) can0 04214006#0000000000000000
(1517155773.663258) can0 06254000#00000000
(1517155773.671539) can0 06314000#4000000000000000
(1517155773.681757) can0 04214001#0081908400000000
(1517155773.684609) can0 04294001#030300003D000000
(1517155773.686789) can0 04394000#000000EC
(1517155773.703588) can0 06314021#0000000000000080
(1517155773.731077) can0 04214001#0081908400000000
(1517155773.733935) can0 04294001#030300003D000000
(1517155773.760882) can0 04214006#0000000000000000
(1517155773.763738) can0 0621401A#0005010080000000
(1517155773.781497) can0 04214001#0081908400000000
(1517155773.784368) can0 04294001#030300003D000000
(1517155773.786547) can0 04394000#000000EC
(1517155773.830911) can0 04214001#0081908400000000
(1517155773.833764) can0 04294001#030300003D000000
(1517155773.860596) can0 04214006#0000000000000000
(1517155773.877856) can0 0C214003#163202082019
(1517155773.881267) can0 04214001#0081908400000000
(1517155773.884128) can0 04294001#030300003D000000
(1517155773.886305) can0 04394000#000000EC
(1517155773.890510) can0 02214000#000000000000
(1517155773.900470) can0 06214000#2104480000350B00
(1517155773.910080) can0 06254000#00000000
(1517155773.920676) can0 06314000#4000000000000000
(1517155773.930670) can0 04214001#0081908400000000
(1517155773.933523) can0 04294001#030300003D000000
(1517155773.935662) can0 063D4000#8B4E0000
(1517155773.939501) can0 06354000#0000
(1517155773.960477) can0 04214006#0000000000000000
(1517155773.963087) can0 0A194005#A0F41054C92800
(1517155773.978232) can0 0C014003#0551D7E088C80000
(1517155773.981112) can0 04214001#0081908400000000
(1517155773.983965) can0 04294001#030300003D000000
(1517155773.986142) can0 04394000#000000EC
(1517155773.989005) can0 08094021#0017487800000000
(1517155774.011225) can0 0A114005#5A03F2000000
(1517155774.014074) can0 0621401A#0005010080000000
(1517155774.030453) can0 04214001#0081908400000000
(1517155774.033304) can0 04294001#030300003D000000
(1517155774.037825) can0 0A014021#4000000000000002
(1517155774.056731) can0 0A014021#5000000000000002
(1517155774.060183) can0 04214006#0000000000000000
(1517155774.063099) can0 06314005#0400000000000000
(1517155774.078285) can0 06314003#2010700002080000
(1517155774.081124) can0 04214001#0081908400000000
(1517155774.083977) can0 04294001#030300003D000000
(1517155774.086136) can0 04394000#000000EC
(1517155774.130280) can0 04214001#0081908400000000
(1517155774.133134) can0 04294001#030300003D000000
(1517155774.139653) can0 02214000#000000000000
(1517155774.150232) can0 06214000#2104480000350B00
(1517155774.159982) can0 04214006#0000000000000000
(1517155774.162180) can0 06254000#00000000
(1517155774.170363) can0 06314000#4000000000000000
(1517155774.178196) can0 0C194003#0558386118086FD0
(1517155774.181035) can0 04214001#0081908400000000
(1517155774.183894) can0 04294001#030300003D000000
(1517155774.186092) can0 04394000#000000EC
(1517155774.230037) can0 04214001#0081908400000000
(1517155774.232890) can0 04294001#030300003D000000
(1517155774.259823) can0 04214006#0000000000000000
(1517155774.262675) can0 0621401A#0005010080000000
(1517155774.278220) can0 0C114003#05584F01220043C0
(1517155774.281059) can0 04214001#0081908400000000
(1517155774.283912) can0 04294001#030300003D000000
(1517155774.286071) can0 04394000#000000EC
(1517155774.329858) can0 04214001#0081908400000000
(1517155774.332708) can0 04294001#030300003D000000
(1517155774.359655) can0 04214006#0000000000000000
(1517155774.365873) can0 0E094000#001E0400106B
(1517155774.367672) can0 0E094021#001E
(1517155774.370715) can0 0E09401A#000E
(1517155774.372510) can0 0E094003#000E
(1517155774.375107) can0 0E094005#0002
(1517155774.378307) can0 0C2D4003#1CF7020000000000
(1517155774.381152) can0 04214001#0081908400000000
(1517155774.384005) can0 04294001#030300003D000000
(1517155774.386168) can0 04394000#000000EC
(1517155774.389464) can0 02214000#000000000000
(1517155774.399578) can0 06214000#2104480000350B00
(1517155774.409178) can0 06254000#00000000
(1517155774.419467) can0 06314000#4000000000000000
(1517155774.429649) can0 04214001#0081908400000000
(1517155774.432523) can0 04294001#030300003D000000
(1517155774.434660) can0 063D4000#8B4E0000
(1517155774.438359) can0 06354000#0000
(1517155774.449720) can0 02294000#0000000002000000
(1517155774.459375) can0 04214006#0000000000000000
(1517155774.478279) can0 0C394003#019100920A000000
(1517155774.481108) can0 04214001#0081908400000000
(1517155774.483966) can0 04294001#030300003D000000
(1517155774.486146) can0 04394000#000000EC
(1517155774.511346) can0 0621401A#0005010080000000
(1517155774.529415) can0 04214001#0081908400000000
(1517155774.532284) can0 04294001#030300003D000000
(1517155774.559139) can0 04214006#0000000000000000
(1517155774.562050) can0 06314005#0400000000000000
(1517155774.578289) can0 06314003#2010700002080000
(1517155774.581128) can0 04214001#0081908400000000
(1517155774.583989) can0 04294001#030300003D000000
(1517155774.586148) can0 04394000#000000EC
(1517155774.629161) can0 04214001#0081908400000000
(1517155774.632019) can0 04294001#030300003D000000
(1517155774.638603) can0 02214000#000000000000
(1517155774.649272) can0 06214000#2104480000350B00
(1517155774.658928) can0 04214006#0000000000000000
(1517155774.661131) can0 06254000#00000000
(1517155774.669252) can0 06314000#4000000000000000
(1517155774.679846) can0 04214001#0081908400000000
(1517155774.682701) can0 04294001#030300003D000000
(1517155774.684859) can0 04394000#000000EC
(1517155774.704277) can0 06314021#0000000000000080
(1517155774.728967) can0 04214001#0081908400000000
(1517155774.731827) can0 04294001#030300003D000000
(1517155774.758711) can0 04214006#0000000000000000
(1517155774.761570) can0 0621401A#0005010080000000
(1517155774.779702) can0 04214001#0081908400000000
(1517155774.782559) can0 04294001#030300003D000000
(1517155774.784717) can0 04394000#000000EC
(1517155774.828758) can0 04214001#0081908400000000
(1517155774.831704) can0 04294001#030300003D000000
(1517155774.858506) can0 04214006#0000000000000000
(1517155774.877840) can0 0C214003#163202082019
(1517155774.880687) can0 04214001#0081908400000000
(1517155774.883539) can0 04294001#030300003D000000
(1517155774.885698) can0 04394000#000000EC
(1517155774.888358) can0 02214000#000000000000
(1517155774.898387) can0 06214000#2104480000350B00
(1517155774.907947) can0 06254000#00000000
(1517155774.918441) can0 06314000#4000000000000000
(1517155774.928618) can0 04214001#0081908400000000
(1517155774.931536) can0 04294001#030300003D000000
(1517155774.933661) can0 063D4000#8B4E0000
(1517155774.937254) can0 06354000#0000
(1517155774.958262) can0 04214006#0000000000000000
(1517155774.960882) can0 0A194005#A0F41054C92800
(1517155774.978251) can0 04214001#0081908400000000
(1517155774.981118) can0 04294001#030300003D000000
(1517155774.983271) can0 04394000#000000EC
(1517155774.986070) can0 0C014003#0551D7E088C80000
(1517155774.989510) can0 08094021#0017487800000000
(1517155775.010051) can0 0A114005#5A03F2000000
(1517155775.012906) can0 0621401A#0005010080000000
(1517155775.028336) can0 04214001#0081908400000000
(1517155775.031190) can0 04294001#030300003D000000
(1517155775.038496) can0 0A014021#4000000000000002
(1517155775.057394) can0 0A014021#5000000000000002
(1517155775.060320) can0 04214006#0000000000000000
(1517155775.063230) can0 06314005#0400000000000000
(1517155775.078288) can0 06314003#2010700002080000
(1517155775.081129) can0 04214001#0081908400000000
(1517155775.083988) can0 04294001#030300003D000000
(1517155775.086145) can0 04394000#000000EC
(1517155775.128127) can0 04214001#0081908400000000
(1517155775.130983) can0 04294001#030300003D000000
(1517155775.137534) can0 02214000#000000000000
(1517155775.148169) can0 06214000#2104480000350B00
(1517155775.157868) can0 04214006#0000000000000000
(1517155775.160077) can0 06254000#00000000
(1517155775.168143) can0 06314000#4000000000000000
(1517155775.177799) can0 04214001#0081908400000000
(1517155775.180567) can0 0C194003#0558386118086FD0
(1517155775.183419) can0 04294001#030300003D000000
(1517155775.185577) can0 04394000#000000EC
(1517155775.227920) can0 04214001#0081908400000000
(1517155775.230770) can0 04294001#030300003D000000
(1517155775.257642) can0 04214006#0000000000000000
(1517155775.260859) can0 0621401A#0005010080000000
(1517155775.277587) can0 04214001#0081908400000000
(1517155775.280459) can0 04294001#030300003D000000
(1517155775.282610) can0 04394000#000000EC
(1517155775.285395) can0 0C114003#05584F01220043C0
(1517155775.327709) can0 04214001#0081908400000000
(1517155775.330568) can0 04294001#030300003D000000
(1517155775.357533) can0 04214006#0000000000000000
(1517155775.363811) can0 0E094000#001E0400106B
(1517155775.365587) can0 0E094021#001E
(1517155775.367390) can0 0E094003#000E
(1517155775.369295) can0 0E09401A#000E
(1517155775.373943) can0 0E094005#0002
(1517155775.377439) can0 04214001#0081908400000000
(1517155775.380322) can0 0C2D4003#1CF7020000000000
(1517155775.383180) can0 04294001#030300003D000000
(1517155775.385339) can0 04394000#000000EC
(1517155775.387878) can0 02214000#000000000000
(1517155775.397413) can0 06214000#2104480000350B00
(1517155775.407026) can0 06254000#00000000
(1517155775.417382) can0 06314000#4000000000000000
(1517155775.427504) can0 04214001#0081908400000000
(1517155775.430407) can0 04294001#030300003D000000
(1517155775.432530) can0 063D4000#8B4E0000
(1517155775.436311) can0 06354000#0000
(1517155775.447770) can0 02294000#0000000002000000
(1517155775.457226) can0 04214006#0000000000000000
(1517155775.477114) can0 04214001#0081908400000000
(1517155775.479958) can0 0C394003#019100920A000000
(1517155775.482814) can0 04294001#030300003D000000
(1517155775.484973) can0 04394000#000000EC
(1517155775.510253) can0 0621401A#0005010080000000
(1517155775.527302) can0 04214001#0081908400000000
(1517155775.530154) can0 04294001#030300003D000000
(1517155775.557165) can0 04214006#0000000000000000
(1517155775.560083) can0 06314005#0400000000000000
(1517155775.576911) can0 04214001#0081908400000000
(1517155775.579775) can0 04294001#030300003D000000
(1517155775.581931) can0 04394000#000000EC
(1517155775.584791) can0 06314003#2010700002080000
(1517155775.627073) can0 04214001#0081908400000000
(1517155775.629926) can0 04294001#030300003D000000
(1517155775.636468) can0 02214000#000000000000
(1517155775.647181) can0 06214000#2104480000350B00
(1517155775.656797) can0 04214006#0000000000000000
(1517155775.659000) can0 06254000#00000000
(1517155775.667109) can0 06314000#4000000000000000
(1517155775.676723) can0 04214001#0081908400000000
(1517155775.679604) can0 04294001#030300003D000000
(1517155775.681763) can0 04394000#000000EC
(1517155775.704931) can0 06314021#0000000000000080
(1517155775.726837) can0 04214001#0081908400000000
(1517155775.729692) can0 04294001#030300003D000000
(1517155775.756583) can0 04214006#0000000000000000
(1517155775.760280) can0 0621401A#0005010080000000
(1517155775.776487) can0 04214001#0081908400000000
(1517155775.779365) can0 04294001#030300003D000000
(1517155775.781498) can0 04394000#000000EC
(1517155775.826624) can0 04214001#0081908400000000
(1517155775.829483) can0 04294001#030300003D000000
(1517155775.856393) can0 04214006#0000000000000000
(1517155775.876303) can0 04214001#0081908400000000
(1517155775.879157) can0 04294001#030300003D000000
(1517155775.881314) can0 04394000#000000EC
(1517155775.883734) can0 0C214003#163202082019
(1517155775.886392) can0 02214000#000000000000
(1517155775.896330) can0 06214000#2104480000350B00
(1517155775.905885) can0 06254000#00000000
(1517155775.916298) can0 06314000#4000000000000000
(1517155775.926451) can0 04214001#0081908400000000
(1517155775.929315) can0 04294001#030300003D000000
(1517155775.931449) can0 063D4000#8B4E0000
(1517155775.935132) can0 06354000#0000
(1517155775.956180) can0 04214006#0000000000000000
(1517155775.959081) can0 0A194005#A0F41054C92800
(1517155775.976098) can0 04214001#0081908400000000
(1517155775.978945) can0 04294001#030300003D000000
(1517155775.981107) can0 04394000#000000EC
(1517155775.983907) can0 0C014003#0551D7E088C80000
(1517155775.990054) can0 08094021#0017487800000000
(1517155776.008873) can0 0A114005#5A03F2000000
(1517155776.011724) can0 0621401A#0005010080000000
(1517155776.026202) can0 04214001#0081908400000000
(1517155776.029116) can0 04294001#030300003D000000
(1517155776.039093) can0 0A014021#4000000000000002
(1517155776.056111) can0 04214006#0000000000000000
(1517155776.058987) can0 0A014021#5000000000000002
(1517155776.061896) can0 06314005#0400000000000000
(1517155776.075891) can0 04214001#0081908400000000
(1517155776.078792) can0 06314003#2010700002080000
(1517155776.081615) can0 04294001#030300003D000000
(1517155776.083772) can0 04394000#000000EC
(1517155776.125991) can0 04214001#0081908400000000
(1517155776.128858) can0 04294001#030300003D000000
(1517155776.135608) can0 02214000#000000000000
(1517155776.146068) can0 06214000#2104480000350B00
(1517155776.155784) can0 04214006#0000000000000000
(1517155776.157976) can0 06254000#00000000
(1517155776.166033) can0 06314000#4000000000000000
(1517155776.175694) can0 04214001#0081908400000000
(1517155776.178546) can0 04294001#030300003D000000
(1517155776.180710) can0 04394000#000000EC
(1517155776.183465) can0 0C194003#0558386118086FD0
(1517155776.225783) can0 04214001#0081908400000000
(1517155776.228642) can0 04294001#030300003D000000
(1517155776.255616) can0 04214006#0000000000000000
(1517155776.259407) can0 0621401A#0005010080000000
(1517155776.275663) can0 04214001#0081908400000000
(1517155776.278515) can0 04294001#030300003D000000
(1517155776.280678) can0 04394000#000000EC
(1517155776.283454) can0 0C114003#05584F01220043C0
(1517155776.325595) can0 04214001#0081908400000000
(1517155776.328453) can0 04294001#030300003D000000
(1517155776.355365) can0 04214006#0000000000000000
(1517155776.361843) can0 0E094000#001E0400106B
(1517155776.363637) can0 0E094021#001E
(1517155776.367196) can0 0E094003#000E
(1517155776.368957) can0 0E09401A#000E
(1517155776.372770) can0 0E094005#0002
(1517155776.375609) can0 04214001#0081908400000000
(1517155776.378467) can0 04294001#030300003D000000
(1517155776.381353) can0 0C2D4003#1CF7020000000000
(1517155776.383505) can0 04394000#000000EC
(1517155776.386046) can0 02214000#000000000000
(1517155776.395307) can0 06214000#2104480000350B00
(1517155776.404815) can0 06254000#00000000
(1517155776.415257) can0 06314000#4000000000000000
(1517155776.425409) can0 04214001#0081908400000000
(1517155776.427563) can0 063D4000#8B4E0000
(1517155776.435145) can0 04294001#030300003D000000
(1517155776.436939) can0 06354000#0000
(1517155776.445502) can0 02294000#0000000002000000
(1517155776.455278) can0 04214006#0000000000000000
(1517155776.475270) can0 04214001#0081908400000000
(1517155776.477421) can0 04394000#000000EC
(1517155776.480262) can0 0C394003#019100920A000000
(1517155776.485319) can0 04294001#030300003D000000
(1517155776.509561) can0 0621401A#0005010080000000
(1517155776.525266) can0 04214001#0081908400000000
(1517155776.534921) can0 04294001#030300003D000000
(1517155776.554958) can0 04214006#0000000000000000
(1517155776.558665) can0 06314005#0400000000000000
(1517155776.574384) can0 04394000#000000EC
(1517155776.578279) can0 06314003#2010700002080000
(1517155776.585054) can0 04214001#0081908400000000
(1517155776.587934) can0 04294001#030300003D000000
(1517155776.634496) can0 02214000#000000000000
(1517155776.637329) can0 04214001#0081908400000000
(1517155776.640186) can0 04294001#030300003D000000
(1517155776.645124) can0 06214000#2104480000350B00
(1517155776.654766) can0 04214006#0000000000000000
(1517155776.656958) can0 06254000#00000000
(1517155776.665001) can0 06314000#4000000000000000
(1517155776.674056) can0 04394000#000000EC
(1517155776.684870) can0 04214001#0081908400000000
(1517155776.687724) can0 04294001#030300003D000000
(1517155776.705583) can0 06314021#0000000000000080
(1517155776.734510) can0 04214001#0081908400000000
(1517155776.737408) can0 04294001#030300003D000000
(1517155776.754585) can0 04214006#0000000000000000
(1517155776.758930) can0 0621401A#0005010080000000
(1517155776.773834) can0 04394000#000000EC
(1517155776.784648) can0 04214001#0081908400000000
(1517155776.787525) can0 04294001#030300003D000000
(1517155776.834243) can0 04214001#0081908400000000
(1517155776.837097) can0 04294001#030300003D000000
(1517155776.854296) can0 04214006#0000000000000000
(1517155776.873526) can0 04394000#000000EC
(1517155776.877840) can0 0C214003#163202082019
(1517155776.884277) can0 02214000#000000000000
(1517155776.887116) can0 04214001#0081908400000000
(1517155776.889979) can0 04294001#030300003D000000
(1517155776.894234) can0 06214000#2104480000350B00
(1517155776.903755) can0 06254000#00000000
(1517155776.914289) can0 06314000#4000000000000000
(1517155776.923764) can0 063D4000#8B4E0000
(1517155776.934039) can0 04214001#0081908400000000
(1517155776.936892) can0 04294001#030300003D000000
(1517155776.938691) can0 06354000#0000
(1517155776.954150) can0 04214006#0000000000000000
(1517155776.958018) can0 0A194005#A0F41054C92800
(1517155776.973436) can0 04394000#000000EC
(1517155776.978211) can0 0C014003#0551D7E088C80000
(1517155776.984236) can0 04214001#0081908400000000
(1517155776.987087) can0 04294001#030300003D000000
(1517155776.990833) can0 08094021#0017487800000000
(1517155777.007709) can0 0A114005#5A03F2000000
(1517155777.010575) can0 0621401A#0005010080000000
(1517155777.033961) can0 04214001#0081908400000000
(1517155777.036813) can0 04294001#030300003D000000
(1517155777.039855) can0 0A014021#4000000000000002
(1517155777.053871) can0 04214006#0000000000000000
(1517155777.058080) can0 06314005#0400000000000000
(1517155777.060960) can0 0A014021#5000000000000002
(1517155777.073061) can0 04394000#000000EC
(1517155777.078275) can0 06314003#2010700002080000
(1517155777.084039) can0 04214001#0081908400000000
(1517155777.086892) can0 04294001#030300003D000000
(1517155777.133413) can0 02214000#000000000000
(1517155777.136247) can0 04214001#0081908400000000
(1517155777.139107) can0 04294001#030300003D000000
(1517155777.143922) can0 06214000#2104480000350B00
(1517155777.153662) can0 04214006#0000000000000000
(1517155777.155856) can0 06254000#00000000
(1517155777.163998) can0 06314000#4000000000000000
(1517155777.172854) can0 04394000#000000EC
(1517155777.178168) can0 0C194003#0558386118086FD0
(1517155777.183826) can0 04214001#0081908400000000
(1517155777.186725) can0 04294001#030300003D000000
(1517155777.233468) can0 04214001#0081908400000000
(1517155777.236360) can0 04294001#030300003D000000
(1517155777.253458) can0 04214006#0000000000000000
(1517155777.258726) can0 0621401A#0005010080000000
(1517155777.272745) can0 04394000#000000EC
(1517155777.278199) can0 0C114003#05584F01220043C0
(1517155777.283762) can0 04214001#0081908400000000
(1517155777.286616) can0 04294001#030300003D000000
(1517155777.333339) can0 04214001#0081908400000000
(1517155777.336212) can0 04294001#030300003D000000
(1517155777.353409) can0 04214006#0000000000000000
(1517155777.359600) can0 0E094000#001E0400106B
(1517155777.361400) can0 0E094021#001E
(1517155777.363177) can0 0E094003#000E
(1517155777.364974) can0 0E094005#0002
(1517155777.367112) can0 0E09401A#000E
(1517155777.372457) can0 04394000#000000EC
(1517155777.378290) can0 0C2D4003#1CF7020000000000
(1517155777.383257) can0 02214000#000000000000
(1517155777.386088) can0 04214001#0081908400000000
(1517155777.388948) can0 04294001#030300003D000000
(1517155777.393243) can0 06214000#2104480000350B00
(1517155777.402764) can0 06254000#00000000
(1517155777.413141) can0 06314000#4000000000000000
(1517155777.422929) can0 063D4000#8B4E0000
(1517155777.433071) can0 04214001#0081908400000000
(1517155777.435923) can0 04294001#030300003D000000
(1517155777.437723) can0 06354000#0000
(1517155777.443400) can0 02294000#0000000002000000
(1517155777.453103) can0 04214006#0000000000000000
(1517155777.472393) can0 04394000#000000EC
(1517155777.478250) can0 0C394003#019100920A000000
(1517155777.483210) can0 04214001#0081908400000000
(1517155777.486060) can0 04294001#030300003D000000
(1517155777.508477) can0 0621401A#0005010080000000
(1517155777.532844) can0 04214001#0081908400000000
(1517155777.535703) can0 04294001#030300003D000000
(1517155777.552841) can0 04214006#0000000000000000
(1517155777.557488) can0 06314005#0400000000000000
(1517155777.572026) can0 04394000#000000EC
(1517155777.578260) can0 06314003#2010700002080000
(1517155777.583004) can0 04214001#0081908400000000
(1517155777.585857) can0 04294001#030300003D000000
(1517155777.632357) can0 02214000#000000000000
(1517155777.635235) can0 04214001#0081908400000000
(1517155777.638213) can0 04294001#030300003D000000
(1517155777.642995) can0 06214000#2104480000350B00
(1517155777.652652) can0 04214006#0000000000000000
(1517155777.654843) can0 06254000#00000000
(1517155777.663060) can0 06314000#4000000000000000
(1517155777.671801) can0 04394000#000000EC
(1517155777.682794) can0 04214001#0081908400000000
(1517155777.685648) can0 04294001#030300003D000000
(1517155777.706198) can0 06314021#0000000000000080
(1517155777.732423) can0 04214001#0081908400000000
(1517155777.735295) can0 04294001#030300003D000000
(1517155777.752428) can0 04214006#0000000000000000
(1517155777.758200) can0 0621401A#0005010080000000
(1517155777.771595) can0 04394000#000000EC
(1517155777.782549) can0 04214001#0081908400000000
(1517155777.785446) can0 04294001#030300003D000000
(1517155777.832166) can0 04214001#0081908400000000
(1517155777.835059) can0 04294001#030300003D000000
(1517155777.852315) can0 04214006#0000000000000000
(1517155777.871453) can0 04394000#000000EC
(1517155777.877824) can0 0C214003#163202082019
(1517155777.882187) can0 02214000#000000000000
(1517155777.885059) can0 04214001#0081908400000000
(1517155777.887918) can0 04294001#030300003D000000
(1517155777.892183) can0 06214000#2104480000350B00
(1517155777.901699) can0 06254000#00000000
(1517155777.912209) can0 06314000#4000000000000000
(1517155777.921550) can0 063D4000#8B4E0000
(1517155777.931965) can0 04214001#0081908400000000
(1517155777.934819) can0 04294001#030300003D000000
(1517155777.936618) can0 06354000#0000
(1517155777.952196) can0 04214006#0000000000000000
(1517155777.956725) can0 0A194005#A0F41054C92800
(1517155777.971178) can0 04394000#000000EC
(1517155777.978199) can0 0C014003#0551D7E088C80000
(1517155777.982121) can0 04214001#0081908400000000
(1517155777.984974) can0 04294001#030300003D000000
(1517155777.991339) can0 08094021#0017487800000000
(1517155778.006543) can0 0A114005#5A03F2000000
(1517155778.009397) can0 0621401A#0005010080000000
(1517155778.031904) can0 04214001#0081908400000000
(1517155778.034802) can0 04294001#030300003D000000
(1517155778.040408) can0 0A014021#4000000000000002
(1517155778.051982) can0 04214006#0000000000000000
(1517155778.056912) can0 06314005#0400000000000000
(1517155778.059799) can0 0A014021#5000000000000002
(1517155778.071033) can0 04394000#000000EC
(1517155778.078266) can0 06314003#2010700002080000
(1517155778.082130) can0 04214001#0081908400000000
(1517155778.084984) can0 04294001#030300003D000000
(1517155778.131366) can0 02214000#000000000000
(1517155778.134199) can0 04214001#0081908400000000
(1517155778.137157) can0 04294001#030300003D000000
(1517155778.141880) can0 06214000#2104480000350B00
(1517155778.151070) can0 06254000#00000000
(1517155778.161910) can0 04214006#0000000000000000
(1517155778.164843) can0 06314000#4000000000000000
(1517155778.170845) can0 04394000#000000EC
(1517155778.178161) can0 0C194003#0558386118086FD0
(1517155778.181783) can0 04214001#0081908400000000
(1517155778.184677) can0 04294001#030300003D000000
(1517155778.231399) can0 04214001#0081908400000000
(1517155778.234253) can0 04294001#030300003D000000
(1517155778.257295) can0 0621401A#0005010080000000
(1517155778.261692) can0 04214006#0000000000000000
(1517155778.270722) can0 04394000#000000EC
(1517155778.278182) can0 0C114003#05584F01220043C0
(1517155778.281686) can0 04214001#0081908400000000
(1517155778.284540) can0 04294001#030300003D000000
(1517155778.331177) can0 04214001#0081908400000000
(1517155778.334035) can0 04294001#030300003D000000
(1517155778.357430) can0 0E094000#001E0400106B
(1517155778.359206) can0 0E094021#001E
(1517155778.362122) can0 04214006#0000000000000000
(1517155778.363901) can0 0E094003#000E
(1517155778.365698) can0 0E094005#0002
(1517155778.367456) can0 0E09401A#000E
(1517155778.370360) can0 04394000#000000EC
(1517155778.378276) can0 0C2D4003#1CF7020000000000
(1517155778.381059) can0 02214000#000000000000
(1517155778.383893) can0 04214001#0081908400000000
(1517155778.386752) can0 04294001#030300003D000000
(1517155778.390990) can0 06214000#2104480000350B00
(1517155778.400772) can0 06254000#00000000
(1517155778.411126) can0 06314000#4000000000000000
(1517155778.420596) can0 063D4000#8B4E0000
(1517155778.430872) can0 04214001#0081908400000000
(1517155778.433771) can0 04294001#030300003D000000
(1517155778.435569) can0 06354000#0000
(1517155778.441732) can0 02294000#0000000002000000
(1517155778.461203) can0 04214006#0000000000000000
(1517155778.470137) can0 04394000#000000EC
(1517155778.478232) can0 0C394003#019100920A000000
(1517155778.481250) can0 04214001#0081908400000000
(1517155778.484109) can0 04294001#030300003D000000
(1517155778.507371) can0 0621401A#0005010080000000
(1517155778.530680) can0 04214001#0081908400000000
(1517155778.533592) can0 04294001#030300003D000000
(1517155778.556331) can0 06314005#0400000000000000
(1517155778.561048) can0 04214006#0000000000000000
(1517155778.569940) can0 04394000#000000EC
(1517155778.578258) can0 06314003#2010700002080000
(1517155778.581105) can0 04214001#0081908400000000
(1517155778.583962) can0 04294001#030300003D000000
(1517155778.630153) can0 02214000#000000000000
(1517155778.632992) can0 04214001#0081908400000000
(1517155778.635850) can0 04294001#030300003D000000
(1517155778.641088) can0 06214000#2104480000350B00
(1517155778.650029) can0 06254000#00000000
(1517155778.660744) can0 04214006#0000000000000000
(1517155778.663677) can0 06314000#4000000000000000
(1517155778.669715) can0 04394000#000000EC
(1517155778.680832) can0 04214001#0081908400000000
(1517155778.683686) can0 04294001#030300003D000000
(1517155778.706852) can0 06314021#0000000000000080
(1517155778.730276) can0 04214001#0081908400000000
(1517155778.733133) can0 04294001#030300003D000000
(1517155778.756748) can0 0621401A#0005010080000000
(1517155778.760528) can0 04214006#0000000000000000
(1517155778.769501) can0 04394000#000000EC
(1517155778.780515) can0 04214001#0081908400000000
(1517155778.783414) can0 04294001#030300003D000000
(1517155778.830039) can0 04214001#0081908400000000
(1517155778.832891) can0 04294001#030300003D000000
(1517155778.860443) can0 04214006#0000000000000000
(1517155778.869292) can0 04394000#000000EC
(1517155778.877812) can0 0C214003#163202082019
(1517155778.880356) can0 02214000#000000000000
(1517155778.883189) can0 04214001#0081908400000000
(1517155778.886048) can0 04294001#030300003D000000
(1517155778.889970) can0 06214000#2104480000350B00
(1517155778.899626) can0 06254000#00000000
(1517155778.909980) can0 06314000#4000000000000000
(1517155778.919536) can0 063D4000#8B4E0000
(1517155778.929868) can0 04214001#0081908400000000
(1517155778.932726) can0 04294001#030300003D000000
(1517155778.934525) can0 06354000#0000
(1517155778.955567) can0 0A194005#A0F41054C92800
(1517155778.960106) can0 04214006#0000000000000000
(1517155778.969097) can0 04394000#000000EC
(1517155778.978195) can0 0C014003#0551D7E088C80000
(1517155778.981038) can0 04214001#0081908400000000
(1517155778.983892) can0 04294001#030300003D000000
(1517155778.992132) can0 08094021#0017487800000000
(1517155779.005364) can0 0A114005#5A03F2000000
(1517155779.008214) can0 0621401A#0005010080000000
(1517155779.029650) can0 04214001#0081908400000000
(1517155779.032503) can0 04294001#030300003D000000
(1517155779.041068) can0 0A014021#4000000000000002
(1517155779.055745) can0 06314005#0400000000000000
(1517155779.060028) can0 04214006#0000000000000000
(1517155779.062902) can0 0A014021#5000000000000002
(1517155779.068921) can0 04394000#000000EC
(1517155779.078259) can0 06314003#2010700002080000
(1517155779.081102) can0 04214001#0081908400000000
(1517155779.083959) can0 04294001#030300003D000000
(1517155779.129120) can0 02214000#000000000000
(1517155779.131973) can0 04214001#0081908400000000
(1517155779.134832) can0 04294001#030300003D000000
(1517155779.140336) can0 06214000#2104480000350B00
(1517155779.148847) can0 06254000#00000000
(1517155779.159845) can0 04214006#0000000000000000
(1517155779.162799) can0 06314000#4000000000000000
(1517155779.168841) can0 04394000#000000EC
(1517155779.178156) can0 0C194003#0558386118086FD0
(1517155779.181003) can0 04214001#0081908400000000
(1517155779.183853) can0 04294001#030300003D000000
(1517155779.229251) can0 04214001#0081908400000000
(1517155779.232150) can0 04294001#030300003D000000
(1517155779.244681) can0 0A114005#5A038C000000
(1517155779.247292) can0 0A194005#34C910759A0200
(1517155779.256227) can0 0621401A#0005010080000000
(1517155779.259565) can0 04214006#0000000000000000
(1517155779.268476) can0 04394000#000000EC
(1517155779.278177) can0 0C114003#05584F01220043C0
(1517155779.281022) can0 04214001#0081908400000000
(1517155779.283894) can0 04294001#030300003D000000
(1517155779.329018) can0 04214001#0081908400000000
(1517155779.331870) can0 04294001#030300003D000000
(1517155779.355379) can0 0E094000#001E0400106B
(1517155779.357157) can0 0E094021#001E
(1517155779.360083) can0 04214006#0000000000000000
(1517155779.361856) can0 0E094003#000E
(1517155779.363654) can0 0E094005#0002
(1517155779.365412) can0 0E09401A#000E
(1517155779.368252) can0 04394000#000000EC
(1517155779.378277) can0 0C2D4003#1CF7020000000000
(1517155779.380815) can0 02214000#000000000000
(1517155779.383649) can0 04214001#0081908400000000
(1517155779.386527) can0 04294001#030300003D000000
(1517155779.389369) can0 06214000#2104480000350B00
(1517155779.398521) can0 06254000#00000000
(1517155779.409076) can0 06314000#4000000000000000
(1517155779.418411) can0 063D4000#8B4E0000
(1517155779.428792) can0 04214001#0081908400000000
(1517155779.431646) can0 04294001#030300003D000000
(1517155779.433443) can0 06354000#0000
(1517155779.439986) can0 02294000#0000000002000000
(1517155779.459076) can0 04214006#0000000000000000
(1517155779.468046) can0 04394000#000000EC
(1517155779.478227) can0 0C394003#019100920A000000
(1517155779.481070) can0 04214001#0081908400000000
(1517155779.483924) can0 04294001#030300003D000000
(1517155779.506305) can0 0621401A#0005010080000000
(1517155779.528610) can0 04214001#0081908400000000
(1517155779.531468) can0 04294001#030300003D000000
(1517155779.555167) can0 06314005#0400000000000000
(1517155779.558980) can0 04214006#0000000000000000
(1517155779.567832) can0 04394000#000000EC
(1517155779.578259) can0 06314003#2010700002080000
(1517155779.581097) can0 04214001#0081908400000000
(1517155779.583951) can0 04294001#030300003D000000
(1517155779.628080) can0 02214000#000000000000
(1517155779.630913) can0 04214001#0081908400000000
(1517155779.633765) can0 04294001#030300003D000000
(1517155779.639565) can0 06214000#2104480000350B00
(1517155779.647878) can0 06254000#00000000
(1517155779.658694) can0 04214006#0000000000000000
(1517155779.661632) can0 06314000#4000000000000000
(1517155779.667627) can0 04394000#000000EC
(1517155779.678569) can0 04214001#0081908400000000
(1517155779.681426) can0 04294001#030300003D000000
(1517155779.707528) can0 06314021#0000000000000080
(1517155779.728180) can0 04214001#0081908400000000
(1517155779.731034) can0 04294001#030300003D000000
(1517155779.755770) can0 0621401A#0005010080000000
(1517155779.758683) can0 04214006#0000000000000000
(1517155779.767463) can0 04394000#000000EC
(1517155779.778473) can0 04214001#0081908400000000
(1517155779.781337) can0 04294001#030300003D000000
(1517155779.827975) can0 04214001#0081908400000000
(1517155779.830827) can0 04294001#030300003D000000
(1517155779.858380) can0 04214006#0000000000000000
(1517155779.867196) can0 04394000#000000EC
(1517155779.877829) can0 02214000#000000000000
(1517155779.880669) can0 04214001#0081908400000000
(1517155779.883522) can0 04294001#030300003D000000
(1517155779.885942) can0 0C214003#163202082019
(1517155779.888780) can0 06214000#2104480000350B00
(1517155779.897456) can0 06254000#00000000
(1517155779.907912) can0 06314000#4000000000000000
(1517155779.917491) can0 063D4000#8B4E0000
(1517155779.927788) can0 04214001#0081908400000000
(1517155779.930644) can0 04294001#030300003D000000
(1517155779.932438) can0 06354000#0000
(1517155779.954353) can0 0A194005#34C910759A0200
(1517155779.958051) can0 04214006#0000000000000000
(1517155779.966971) can0 04394000#000000EC
(1517155779.977946) can0 04214001#0081908400000000
(1517155779.980746) can0 0C014003#0551D7E088C80000
(1517155779.983600) can0 04294001#030300003D000000
(1517155779.992685) can0 08094021#0017487800000000
(1517155780.004173) can0 0A114005#5A038C000000
(1517155780.007024) can0 0621401A#0005010080000000
(1517155780.027518) can0 04214001#0081908400000000
(1517155780.030377) can0 04294001#030300003D000000
(1517155780.041717) can0 0A014021#4000000000000002
(1517155780.054581) can0 06314005#0400000000000000
(1517155780.057916) can0 04214006#0000000000000000
(1517155780.060800) can0 0A014021#5000000000000002
(1517155780.066794) can0 04394000#000000EC
(1517155780.077708) can0 04214001#0081908400000000
(1517155780.080571) can0 04294001#030300003D000000
(1517155780.083426) can0 06314003#2010700002080000
(1517155780.127011) can0 02214000#000000000000
(1517155780.129844) can0 04214001#0081908400000000
(1517155780.132702) can0 04294001#030300003D000000
(1517155780.138619) can0 06214000#2104480000350B00
(1517155780.146661) can0 06254000#00000000
(1517155780.157756) can0 04214006#0000000000000000
(1517155780.160694) can0 06314000#4000000000000000
(1517155780.166547) can0 04394000#000000EC
(1517155780.177606) can0 04214001#0081908400000000
(1517155780.180366) can0 0C194003#0558386118086FD0
(1517155780.183220) can0 04294001#030300003D000000
(1517155780.227123) can0 04214001#0081908400000000
(1517155780.229979) can0 04294001#030300003D000000
(1517155780.255150) can0 0621401A#0005010080000000
(1517155780.258069) can0 04214006#0000000000000000
(1517155780.266350) can0 04394000#000000EC
(1517155780.277284) can0 04214001#0081908400000000
(1517155780.280143) can0 04294001#030300003D000000
(1517155780.282918) can0 0C114003#05584F01220043C0
(1517155780.326877) can0 04214001#0081908400000000
(1517155780.329738) can0 04294001#030300003D000000
(1517155780.353389) can0 0E094000#001E0400106B
(1517155780.355163) can0 0E094021#001E
(1517155780.358086) can0 04214006#0000000000000000
(1517155780.359862) can0 0E094003#000E
(1517155780.361659) can0 0E094005#0002
(1517155780.363938) can0 0E09401A#000E
(1517155780.366236) can0 04394000#000000EC
(1517155780.376851) can0 02214000#000000000000
(1517155780.379696) can0 04214001#0081908400000000
(1517155780.382550) can0 04294001#030300003D000000
(1517155780.385429) can0 0C2D4003#1CF7020000000000
(1517155780.388267) can0 06214000#2104480000350B00
(1517155780.396508) can0 06254000#00000000
(1517155780.406903) can0 06314000#4000000000000000
(1517155780.416399) can0 063D4000#8B4E0000
(1517155780.426714) can0 04214001#0081908400000000
(1517155780.429568) can0 04294001#030300003D000000
(1517155780.431367) can0 06354000#0000
(1517155780.438204) can0 02294000#0000000002000000
(1517155780.445141) can0 0A194005#A0F41054C92800
(1517155780.457034) can0 04214006#0000000000000000
(1517155780.466045) can0 04394000#000000EC
(1517155780.476966) can0 04214001#0081908400000000
(1517155780.479802) can0 0C394003#019100920A000000
(1517155780.482658) can0 04294001#030300003D000000
(1517155780.505240) can0 0621401A#0005010080000000
(1517155780.526489) can0 04214001#0081908400000000
(1517155780.529344) can0 04294001#030300003D000000
(1517155780.553993) can0 06314005#0400000000000000
(1517155780.556911) can0 04214006#0000000000000000
(1517155780.565712) can0 04394000#000000EC
(1517155780.576809) can0 04214001#0081908400000000
(1517155780.579662) can0 04294001#030300003D000000
(1517155780.582521) can0 06314003#2010700002080000
(1517155780.626026) can0 02214000#000000000000
(1517155780.628859) can0 04214001#0081908400000000
(1517155780.631717) can0 04294001#030300003D000000
(1517155780.637633) can0 06214000#2104480000350B00
(1517155780.645595) can0 06254000#00000000
(1517155780.656653) can0 04214006#0000000000000000
(1517155780.659585) can0 06314000#4000000000000000
(1517155780.665499) can0 04394000#000000EC
(1517155780.676475) can0 04214001#0081908400000000
(1517155780.679419) can0 04294001#030300003D000000
(1517155780.708178) can0 06314021#0000000000000080
(1517155780.726069) can0 04214001#0081908400000000
(1517155780.728922) can0 04294001#030300003D000000
(1517155780.754681) can0 0621401A#0005010080000000
(1517155780.757594) can0 04214006#0000000000000000
(1517155780.765295) can0 04394000#000000EC
(1517155780.776270) can0 04214001#0081908400000000
(1517155780.779126) can0 04294001#030300003D000000
(1517155780.825866) can0 04214001#0081908400000000
(1517155780.828718) can0 04294001#030300003D000000
(1517155780.856145) can0 04214006#0000000000000000
(1517155780.865126) can0 04394000#000000EC
(1517155780.875761) can0 02214000#000000000000
(1517155780.878177) can0 0C214003#163202082019
(1517155780.885696) can0 04214001#0081908400000000
(1517155780.888555) can0 04294001#030300003D000000
(1517155780.891394) can0 06214000#2104480000350B00
(1517155780.895367) can0 06254000#00000000
(1517155780.905847) can0 06314000#4000000000000000
(1517155780.915258) can0 063D4000#8B4E0000
(1517155780.925678) can0 04214001#0081908400000000
(1517155780.928532) can0 04294001#030300003D000000
(1517155780.930335) can0 06354000#0000
(1517155780.953230) can0 0A194005#A0F41054C92800
(1517155780.956143) can0 04214006#0000000000000000
(1517155780.965003) can0 04394000#000000EC
(1517155780.975997) can0 04214001#0081908400000000
(1517155780.978794) can0 0C014003#0551D7E088C80000
(1517155780.985529) can0 04294001#030300003D000000
(1517155780.993517) can0 08094021#0017487800000000
(1517155781.003125) can0 0A114005#5A038C000000
(1517155781.005977) can0 0621401A#0005010080000000
(1517155781.025492) can0 04214001#0081908400000000
(1517155781.028345) can0 04294001#030300003D000000
(1517155781.042390) can0 0A014021#4000000000000002
(1517155781.053398) can0 06314005#0400000000000000
(1517155781.056312) can0 04214006#0000000000000000
(1517155781.061338) can0 0A014021#5000000000000002
(1517155781.064690) can0 04394000#000000EC
(1517155781.078256) can0 06314003#2010700002080000
(1517155781.085271) can0 04214001#0081908400000000
(1517155781.088185) can0 04294001#030300003D000000
(1517155781.124932) can0 02214000#000000000000
(1517155781.127765) can0 04214001#0081908400000000
(1517155781.130628) can0 04294001#030300003D000000
(1517155781.135542) can0 06214000#2104480000350B00
(1517155781.144542) can0 06254000#00000000
(1517155781.155533) can0 04214006#0000000000000000
(1517155781.158470) can0 06314000#4000000000000000
(1517155781.164487) can0 04394000#000000EC
(1517155781.178160) can0 0C194003#0558386118086FD0
(1517155781.185076) can0 04214001#0081908400000000
(1517155781.188005) can0 04294001#030300003D000000
(1517155781.225011) can0 04214001#0081908400000000
(1517155781.227864) can0 04294001#030300003D000000
(1517155781.254102) can0 0621401A#0005010080000000
(1517155781.257014) can0 04214006#0000000000000000
(1517155781.264277) can0 04394000#000000EC
(1517155781.278171) can0 0C114003#05584F01220043C0
(1517155781.284853) can0 04214001#0081908400000000
(1517155781.287707) can0 04294001#030300003D000000
(1517155781.324933) can0 04214001#0081908400000000
(1517155781.327786) can0 04294001#030300003D000000
(1517155781.351260) can0 0E094000#001E0400106B
(1517155781.353054) can0 0E094021#001E
(1517155781.355973) can0 04214006#0000000000000000
(1517155781.357751) can0 0E094003#000E
(1517155781.359552) can0 0E094005#0002
(1517155781.363225) can0 0E09401A#000E
(1517155781.365384) can0 04394000#000000EC
(1517155781.374702) can0 02214000#000000000000
(1517155781.378260) can0 0C2D4003#1CF7020000000000
(1517155781.384657) can0 04214001#0081908400000000
(1517155781.387515) can0 04294001#030300003D000000
(1517155781.390355) can0 06214000#2104480000350B00
(1517155781.394394) can0 06254000#00000000
(1517155781.404833) can0 06314000#4000000000000000
(1517155781.414275) can0 063D4000#8B4E0000
(1517155781.424623) can0 04214001#0081908400000000
(1517155781.427477) can0 04294001#030300003D000000
(1517155781.429277) can0 06354000#0000
(1517155781.435013) can0 02294000#0000000002000000
(1517155781.454902) can0 04214006#0000000000000000
(1517155781.463944) can0 04394000#000000EC
(1517155781.478223) can0 0C394003#019100920A000000
(1517155781.484440) can0 04214001#0081908400000000
(1517155781.487293) can0 04294001#030300003D000000
(1517155781.503861) can0 0621401A#0005010080000000
(1517155781.524547) can0 04214001#0081908400000000
(1517155781.527404) can0 04294001#030300003D000000
(1517155781.552821) can0 06314005#0400000000000000
(1517155781.555733) can0 04214006#0000000000000000
(1517155781.563631) can0 04394000#000000EC
(1517155781.578249) can0 06314003#2010700002080000
(1517155781.584255) can0 04214001#0081908400000000
(1517155781.587098) can0 04294001#030300003D000000
(1517155781.623878) can0 02214000#000000000000
(1517155781.626734) can0 04214001#0081908400000000
(1517155781.629575) can0 04294001#030300003D000000
(1517155781.634477) can0 06214000#2104480000350B00
(1517155781.643486) can0 06254000#00000000
(1517155781.654502) can0 04214006#0000000000000000
(1517155781.657442) can0 06314000#4000000000000000
(1517155781.663427) can0 04394000#000000EC
(1517155781.684009) can0 04214001#0081908400000000
(1517155781.686904) can0 04294001#030300003D000000
(1517155781.708848) can0 06314021#0000000000000080
(1517155781.723958) can0 04214001#0081908400000000
(1517155781.726814) can0 04294001#030300003D000000
(1517155781.753926) can0 0621401A#0005010080000000
(1517155781.756845) can0 04214006#0000000000000000
(1517155781.763344) can0 04394000#000000EC
(1517155781.783794) can0 04214001#0081908400000000
(1517155781.786650) can0 04294001#030300003D000000
(1517155781.823855) can0 04214001#0081908400000000
(1517155781.826710) can0 04294001#030300003D000000
(1517155781.854257) can0 04214006#0000000000000000
(1517155781.863008) can0 04394000#000000EC
(1517155781.873898) can0 02214000#000000000000
(1517155781.877797) can0 0C214003#163202082019
(1517155781.883659) can0 04214001#0081908400000000
(1517155781.886513) can0 04294001#030300003D000000
(1517155781.889354) can0 06214000#2104480000350B00
(1517155781.893367) can0 06254000#00000000
(1517155781.903689) can0 06314000#4000000000000000
(1517155781.913184) can0 063D4000#8B4E0000
(1517155781.923559) can0 04214001#0081908400000000
(1517155781.926413) can0 04294001#030300003D000000
(1517155781.928211) can0 06354000#0000
(1517155781.952050) can0 0A194005#A0F41054C92800
(1517155781.954962) can0 04214006#0000000000000000
(1517155781.962763) can0 04394000#000000EC
(1517155781.978183) can0 0C014003#0551D7E088C80000
(1517155781.983500) can0 04214001#0081908400000000
(1517155781.986354) can0 04294001#030300003D000000
(1517155781.993994) can0 08094021#0017487800000000
(1517155782.001834) can0 0A114005#5A038C000000
(1517155782.004683) can0 0621401A#0005010080000000
(1517155782.023484) can0 04214001#0081908400000000
(1517155782.026334) can0 04294001#030300003D000000
(1517155782.043038) can0 0A014021#4000000000000002
(1517155782.052221) can0 06314005#0400000000000000
(1517155782.055139) can0 04214006#0000000000000000
(1517155782.062045) can0 0A014021#5000000000000002
(1517155782.064198) can0 04394000#000000EC
(1517155782.078242) can0 06314003#2010700002080000
(1517155782.083204) can0 04214001#0081908400000000
(1517155782.086054) can0 04294001#030300003D000000
(1517155782.122902) can0 02214000#000000000000
(1517155782.125735) can0 04214001#0081908400000000
(1517155782.128592) can0 04294001#030300003D000000
(1517155782.133395) can0 06214000#2104480000350B00
(1517155782.142470) can0 06254000#00000000
(1517155782.153566) can0 06314000#4000000000000000
(1517155782.163100) can0 04214006#0000000000000000
(1517155782.165254) can0 04394000#000000EC
(1517155782.178134) can0 0C194003#0558386118086FD0
(1517155782.183017) can0 04214001#0081908400000000
(1517155782.185870) can0 04294001#030300003D000000
(1517155782.222937) can0 04214001#0081908400000000
(1517155782.225790) can0 04294001#030300003D000000
(1517155782.253327) can0 0621401A#0005010080000000
(1517155782.262882) can0 04214006#0000000000000000
(1517155782.265035) can0 04394000#000000EC
(1517155782.278160) can0 0C114003#05584F01220043C0
(1517155782.282798) can0 04214001#0081908400000000
(1517155782.285652) can0 04294001#030300003D000000
(1517155782.322824) can0 04214001#0081908400000000
(1517155782.325713) can0 04294001#030300003D000000
(1517155782.349102) can0 0E094000#001E0400106B
(1517155782.350941) can0 0E094021#001E
(1517155782.352722) can0 0E094003#000E
(1517155782.354478) can0 0E09401A#000E
(1517155782.356277) can0 0E094005#0002
(1517155782.362800) can0 04214006#0000000000000000
(1517155782.364952) can0 04394000#000000EC
(1517155782.372575) can0 02214000#000000000000
(1517155782.378269) can0 0C2D4003#1CF7020000000000
(1517155782.382652) can0 04214001#0081908400000000
(1517155782.385506) can0 04294001#030300003D000000
(1517155782.388345) can0 06214000#2104480000350B00
(1517155782.392226) can0 06254000#00000000
(1517155782.402641) can0 06314000#4000000000000000
(1517155782.412113) can0 063D4000#8B4E0000
(1517155782.422539) can0 04214001#0081908400000000
(1517155782.425386) can0 04294001#030300003D000000
(1517155782.427184) can0 06354000#0000
(1517155782.432907) can0 02294000#0000000002000000
(1517155782.462473) can0 04214006#0000000000000000
(1517155782.464626) can0 04394000#000000EC
(1517155782.478226) can0 0C394003#019100920A000000
(1517155782.482510) can0 04214001#0081908400000000
(1517155782.485364) can0 04294001#030300003D000000
(1517155782.503111) can0 0621401A#0005010080000000
(1517155782.522322) can0 04214001#0081908400000000
(1517155782.525175) can0 04294001#030300003D000000
(1517155782.551657) can0 06314005#0400000000000000
(1517155782.562242) can0 04214006#0000000000000000
(1517155782.564398) can0 04394000#000000EC
(1517155782.578238) can0 06314003#2010700002080000
(1517155782.582182) can0 04214001#0081908400000000
(1517155782.585034) can0 04294001#030300003D000000
(1517155782.621824) can0 02214000#000000000000
(1517155782.624654) can0 04214001#0081908400000000
(1517155782.627512) can0 04294001#030300003D000000
(1517155782.632436) can0 06214000#2104480000350B00
(1517155782.641406) can0 06254000#00000000
(1517155782.652641) can0 06314000#4000000000000000
(1517155782.662101) can0 04214006#0000000000000000
(1517155782.664255) can0 04394000#000000EC
(1517155782.681952) can0 04214001#0081908400000000
(1517155782.684805) can0 04294001#030300003D000000
(1517155782.709486) can0 06314021#0000000000000080
(1517155782.722083) can0 04214001#0081908400000000
(1517155782.724938) can0 04294001#030300003D000000
(1517155782.752876) can0 0621401A#0005010080000000
(1517155782.761867) can0 04214006#0000000000000000
(1517155782.764022) can0 04394000#000000EC
(1517155782.781720) can0 04214001#0081908400000000
(1517155782.784574) can0 04294001#030300003D000000
(1517155782.821860) can0 04214001#0081908400000000
(1517155782.824714) can0 04294001#030300003D000000
(1517155782.861660) can0 04214006#0000000000000000
(1517155782.863813) can0 04394000#000000EC
(1517155782.871514) can0 02214000#000000000000
(1517155782.877790) can0 0C214003#163202082019
(1517155782.881675) can0 04214001#0081908400000000
(1517155782.884568) can0 04294001#030300003D000000
(1517155782.887406) can0 06214000#2104480000350B00
(1517155782.891184) can0 06254000#00000000
(1517155782.901784) can0 06314000#4000000000000000
(1517155782.911179) can0 063D4000#8B4E0000
(1517155782.921694) can0 04214001#0081908400000000
(1517155782.924548) can0 04294001#030300003D000000
(1517155782.926367) can0 06354000#0000
(1517155782.950880) can0 0A194005#A0F41054C92800
(1517155782.961440) can0 04214006#0000000000000000
(1517155782.963593) can0 04394000#000000EC
(1517155782.978178) can0 0C014003#0551D7E088C80000
(1517155782.981297) can0 04214001#0081908400000000
(1517155782.984150) can0 04294001#030300003D000000
(1517155782.994801) can0 08094021#0017487800000000
(1517155783.000671) can0 0A114005#5A038C000000
(1517155783.003522) can0 0621401A#0005010080000000
(1517155783.021617) can0 04214001#0081908400000000
(1517155783.024470) can0 04294001#030300003D000000
(1517155783.043697) can0 0A014021#4000000000000002
(1517155783.051067) can0 06314005#0400000000000000
(1517155783.061260) can0 04214006#0000000000000000
(1517155783.063415) can0 04394000#000000EC
(1517155783.066295) can0 0A014021#5000000000000002
(1517155783.078236) can0 06314003#2010700002080000
(1517155783.081259) can0 04214001#0081908400000000
(1517155783.084114) can0 04294001#030300003D000000
(1517155783.121100) can0 02214000#000000000000
(1517155783.123933) can0 04214001#0081908400000000
(1517155783.131349) can0 04294001#030300003D000000
(1517155783.134188) can0 06214000#2104480000350B00
(1517155783.140488) can0 06254000#00000000
(1517155783.151663) can0 06314000#4000000000000000
(1517155783.161061) can0 04214006#0000000000000000
(1517155783.163213) can0 04394000#000000EC
(1517155783.178139) can0 0C194003#0558386118086FD0
(1517155783.180976) can0 04214001#0081908400000000
(1517155783.183831) can0 04294001#030300003D000000
(1517155783.231073) can0 04214001#0081908400000000
(1517155783.233925) can0 04294001#030300003D000000
(1517155783.251946) can0 0621401A#0005010080000000
(1517155783.260828) can0 04214006#0000000000000000
(1517155783.262981) can0 04394000#000000EC
(1517155783.278161) can0 0C114003#05584F01220043C0
(1517155783.281005) can0 04214001#0081908400000000
(1517155783.283859) can0 04294001#030300003D000000
(1517155783.330825) can0 04214001#0081908400000000
(1517155783.333675) can0 04294001#030300003D000000
(1517155783.346953) can0 0E094000#001E0400106B
(1517155783.348766) can0 0E094021#001E
(1517155783.350786) can0 0E09401A#000E
(1517155783.352565) can0 0E094003#000E
(1517155783.354582) can0 0E094005#0002
(1517155783.360645) can0 04214006#0000000000000000
(1517155783.362799) can0 04394000#000000EC
(1517155783.370455) can0 02214000#000000000000
(1517155783.378255) can0 0C2D4003#1CF7020000000000
(1517155783.381098) can0 04214001#0081908400000000
(1517155783.383953) can0 04294001#030300003D000000
(1517155783.386810) can0 06214000#2104480000350B00
(1517155783.390154) can0 06254000#00000000
(1517155783.400629) can0 06314000#4000000000000000
(1517155783.410025) can0 063D4000#8B4E0000
(1517155783.419497) can0 06354000#0000
(1517155783.430752) can0 02294000#0000000002000000
(1517155783.433594) can0 04214001#0081908400000000
(1517155783.436488) can0 04294001#030300003D000000
