(1517155327.450024) can0 0E094000#001C00000001
(1517155327.506092) can0 0E094000#001E00000001
(1517155327.508190) can0 0E094003#000A
(1517155327.512506) can0 0E094005#0002
(1517155327.515876) can0 0E09401A#000C
(1517155327.518015) can0 04394000#00000054
(1517155327.520874) can0 0621401A#A000000080000000
(1517155327.522633) can0 0E094021#001C
(1517155327.527660) can0 02214000#002800000000
(1517155327.538296) can0 06214000#2100480000000F00
(1517155327.540987) can0 0A194005#00000000000080
(1517155327.544267) can0 0C394003#019100920A000000
(1517155327.547271) can0 06254000#00000000
(1517155327.558348) can0 06314000#4000000000000000
(1517155327.567845) can0 04214001#0001914500000000
(1517155327.570760) can0 04214006#0000000000000000
(1517155327.573659) can0 04294001#010100001A000000
(1517155327.575777) can0 063D4000#7B4F0000
(1517155327.577578) can0 06354000#0000
(1517155327.588080) can0 02294000#0000000002000000
(1517155327.590614) can0 0A114005#000000000800
(1517155327.617992) can0 04214001#0001914500000000
(1517155327.620885) can0 04294001#010100001A000000
(1517155327.623024) can0 04394000#00000054
(1517155327.627047) can0 0621401A#0000000080000000
(1517155327.638531) can0 06314005#0000000000000000
(1517155327.644331) can0 06314003#0010700000080000
(1517155327.658053) can0 06214000#2900480000000F00
(1517155327.667630) can0 04214001#0001914500000000
(1517155327.670544) can0 04214006#0000000000000000
(1517155327.673443) can0 04294001#010100001A000000
(1517155327.717792) can0 04214001#0001914500000000
(1517155327.720690) can0 04294001#010100001A000000
(1517155327.722869) can0 04394000#00000054
(1517155327.766792) can0 0621401A#0000000080000000
(1517155327.769622) can0 04214001#0001914500000000
(1517155327.772541) can0 04214006#0000000000000000
(1517155327.775445) can0 04294001#010100001A000000
(1517155327.777979) can0 02214000#002800000000
(1517155327.787501) can0 06214000#2900480000000F00
(1517155327.797138) can0 06254000#00000000
(1517155327.807536) can0 06314000#4000000000000000
(1517155327.817648) can0 04214001#0001914500000000
(1517155327.820548) can0 04294001#010100001A000000
(1517155327.822686) can0 04394000#00000054
(1517155327.834173) can0 06314003#A2107000A0080000
(1517155327.867405) can0 04214001#0001914500000000
(1517155327.870318) can0 04214006#0000000000000000
(1517155327.873218) can0 04294001#010100001A000000
(1517155327.917492) can0 04214001#0001914500000000
(1517155327.920384) can0 04294001#010100001A000000
(1517155327.922524) can0 04394000#00000054
(1517155327.943845) can0 0C214003#215301082019
(1517155327.967164) can0 04214001#0001914500000000
(1517155327.970076) can0 04214006#0000000000000000
(1517155327.972977) can0 04294001#010100001A000000
(1517155328.016774) can0 0621401A#0000000080000000
(1517155328.019606) can0 04214001#0001914500000000
(1517155328.022507) can0 04294001#010100001A000000
(1517155328.024684) can0 04394000#00000054
(1517155328.027249) can0 02214000#002800000000
(1517155328.037287) can0 06214000#2900480000000F00
(1517155328.044202) can0 0C014003#0551D75E88EC0000
(1517155328.047085) can0 06214000#2900480000000B00
(1517155328.049281) can0 06254000#00000000
(1517155328.057318) can0 06314000#4000000000000000
(1517155328.067000) can0 04214001#0001914500000000
(1517155328.069915) can0 04214006#0000000000000000
(1517155328.072814) can0 04294001#010100001A000000
(1517155328.074938) can0 063D4000#7B4E0000
(1517155328.076732) can0 06354000#0000
(1517155328.117041) can0 04214001#0001914500000000
(1517155328.119942) can0 04294001#010100001A000000
(1517155328.122080) can0 04394000#00000054
(1517155328.135875) can0 06314005#0400000000000000
(1517155328.138786) can0 06314005#0400000000000000
(1517155328.140722) can0 0A094005#00A8A4
(1517155328.144263) can0 06314003#A2107000A0080000
(1517155328.146206) can0 0A114000#00F5FA
(1517155328.166802) can0 04214001#0001914500000000
(1517155328.169777) can0 04214006#0000000000000000
(1517155328.172675) can0 04294001#010100001A000000
(1517155328.216870) can0 04214001#0001914500000000
(1517155328.219763) can0 04294001#010100001A000000
(1517155328.221901) can0 04394000#00000054
(1517155328.227207) can0 0621401A#0005050080000000
(1517155328.244241) can0 0C194003#0558375925081F00
(1517155328.266502) can0 04214001#0001914500000000
(1517155328.269413) can0 04214006#0000000000000000
(1517155328.272311) can0 04294001#010100001A000000
(1517155328.275216) can0 0621401A#0005050080000000
(1517155328.277750) can0 02214000#002800000000
(1517155328.286892) can0 06214000#2900480000000B00
(1517155328.296165) can0 06254000#00000000
(1517155328.306572) can0 06314000#4000000000000000
(1517155328.316745) can0 04214001#0001914500000000
(1517155328.319718) can0 04294001#010100001A000000
(1517155328.321857) can0 04394000#00000054
(1517155328.329303) can0 06314003#A2107000A2080000
(1517155328.344223) can0 0C114003#0558430226006640
(1517155328.366357) can0 04214001#0001914500000000
(1517155328.369271) can0 04214006#0000000000000000
(1517155328.372169) can0 04294001#010100001A000000
(1517155328.416558) can0 04214001#0081914500000000
(1517155328.419458) can0 04294001#010100001A000000
(1517155328.421596) can0 04394000#00000054
(1517155328.444303) can0 0C2D4003#1D38020000000000
(1517155328.466197) can0 04214001#0081914500000000
(1517155328.469111) can0 04214006#0000000000000000
(1517155328.472010) can0 04294001#010100001A000000
(1517155328.475348) can0 0C3D4000#47AE
(1517155328.476807) can0 1E114000#
(1517155328.483728) can0 1E114003#362630045880
(1517155328.486273) can0 1E11401A#362630045880
(1517155328.504106) can0 0E094000#001E0400106B
(1517155328.505943) can0 0E094021#001E
(1517155328.508181) can0 0E094003#000E
(1517155328.511578) can0 0E094005#0006
(1517155328.515262) can0 0E09401A#000E
(1517155328.518098) can0 04214001#0081914500000000
(1517155328.520237) can0 04394000#00000054
(1517155328.523136) can0 0621401A#0005050080000000
(1517155328.526061) can0 08094021#0000800000000000
(1517155328.528595) can0 02214000#002800000000
(1517155328.531494) can0 04294001#010100001A000000
(1517155328.536354) can0 06214000#2900480000000B00
(1517155328.539051) can0 0A194005#00000000000080
(1517155328.544271) can0 0C394003#019100920A000000
(1517155328.546473) can0 06254000#00000000
(1517155328.556396) can0 06314000#4000000000000000
(1517155328.566051) can0 04214001#0081914500000000
(1517155328.568965) can0 04214006#0000000000000000
(1517155328.571864) can0 04294001#010100001A000000
(1517155328.574003) can0 063D4000#7B4D0000
(1517155328.576908) can0 0A014021#4000000000000002
(1517155328.578683) can0 06354000#0000
(1517155328.586426) can0 02294000#0000000002000000
(1517155328.588958) can0 0A114005#000000000800
(1517155328.595638) can0 0A014021#5000000000000002
(1517155328.616119) can0 04214001#0081914500000000
(1517155328.619011) can0 04294001#010100001A000000
(1517155328.621149) can0 04394000#00000054
(1517155328.637607) can0 06314005#0400000000000000
(1517155328.644257) can0 06314003#A2107000A2080000
(1517155328.665976) can0 04214001#0081914500000000
(1517155328.668889) can0 04214006#0000000000000000
(1517155328.671789) can0 04294001#010100001A000000
(1517155328.715356) can0 04394000#00000054
(1517155328.725680) can0 04214001#0081914500000000
(1517155328.728593) can0 04294001#010100001A000000
(1517155328.749360) can0 0A394021#0028000000000000
(1517155328.752933) can0 08194003#C0
(1517155328.765675) can0 04214001#0081914500000000
(1517155328.768588) can0 04214006#0000000000000000
(1517155328.771489) can0 04294001#010100001A000000
(1517155328.774391) can0 0621401A#0005050080000000
(1517155328.776926) can0 02214000#002800000000
(1517155328.786107) can0 06214000#2900480000000B00
(1517155328.795268) can0 06254000#00000000
(1517155328.805623) can0 06314000#4000000000000000
(1517155328.815081) can0 04394000#00000054
(1517155328.825498) can0 04214001#0081914500000000
(1517155328.828391) can0 04294001#010100001A000000
(1517155328.865549) can0 04214001#0081914500000000
(1517155328.868460) can0 04214006#0000000000000000
(1517155328.871359) can0 04294001#010100001A000000
(1517155328.914954) can0 04394000#00000054
(1517155328.925371) can0 04214001#0081914500000000
(1517155328.928264) can0 04294001#010100001A000000
(1517155328.943849) can0 0C214003#215301082019
(1517155328.965272) can0 04214001#0081914500000000
(1517155328.968179) can0 04214006#0000000000000000
(1517155328.971118) can0 04294001#010100001A000000
(1517155329.014715) can0 04394000#00000054
(1517155329.017604) can0 0621401A#0005050080000000
(1517155329.024820) can0 02214000#002800000000
(1517155329.027661) can0 04214001#0081914500000000
(1517155329.030559) can0 04294001#010100001A000000
(1517155329.035444) can0 06214000#2900480000000B00
(1517155329.044198) can0 0C014003#0551D75E88EC0000
(1517155329.046402) can0 06254000#00000000
(1517155329.055460) can0 06314000#4000000000000000
(1517155329.065237) can0 04214001#0081914500000000
(1517155329.068171) can0 04214006#0000000000000000
(1517155329.071091) can0 04294001#010100001A000000
(1517155329.073231) can0 063D4000#7B4D0000
(1517155329.075030) can0 06354000#0000
(1517155329.114566) can0 04394000#00000054
(1517155329.124942) can0 04214001#0081914500000000
(1517155329.127836) can0 04294001#010100001A000000
(1517155329.137147) can0 06314005#0400000000000000
(1517155329.144247) can0 06314003#A2107000A2080000
(1517155329.164888) can0 04214001#0081914500000000
(1517155329.167841) can0 04214006#0000000000000000
(1517155329.170740) can0 04294001#010100001A000000
(1517155329.214354) can0 04394000#00000054
(1517155329.224751) can0 04214001#0081914500000000
(1517155329.227647) can0 04294001#010100001A000000
(1517155329.240028) can0 06314021#0000000000000084
(1517155329.244225) can0 0C194003#0558375925081F00
(1517155329.264699) can0 04214001#0081914500000000
(1517155329.267623) can0 04214006#0000000000000000
(1517155329.270519) can0 04294001#010100001A000000
(1517155329.273417) can0 0621401A#0005050080000000
(1517155329.275966) can0 02214000#002800000000
(1517155329.285520) can0 06214000#2900480000000B00
(1517155329.294431) can0 06254000#00000000
(1517155329.304694) can0 06314000#4000000000000000
(1517155329.314170) can0 04394000#00000054
(1517155329.324683) can0 04214001#0081914500000000
(1517155329.327592) can0 04294001#010100001A000000
(1517155329.344227) can0 0C114003#0558430226006640
(1517155329.364542) can0 04214001#0081914500000000
(1517155329.367457) can0 04214006#0000000000000000
(1517155329.370355) can0 04294001#010100001A000000
(1517155329.414044) can0 04394000#00000054
(1517155329.424346) can0 04214001#0081914500000000
(1517155329.427241) can0 04294001#010100001A000000
(1517155329.444299) can0 0C2D4003#1D38020000000000
(1517155329.464308) can0 04214001#0081914500000000
(1517155329.467215) can0 04214006#0000000000000000
(1517155329.470113) can0 04294001#010100001A000000
(1517155329.473491) can0 0C3D4000#47AE
(1517155329.474916) can0 1E114000#
(1517155329.478372) can0 1E114021#362630045880
(1517155329.480771) can0 1E114003#362630045880
(1517155329.485734) can0 1E11401A#362630045880
(1517155329.502245) can0 0E094000#001E0400106B
(1517155329.504084) can0 0E094021#001E
(1517155329.505844) can0 0E09401A#000E
(1517155329.508183) can0 0E094003#000E
(1517155329.510660) can0 0E094005#0006
(1517155329.513898) can0 04394000#00000054
(1517155329.516804) can0 0621401A#0005050080000000
(1517155329.523875) can0 02214000#002800000000
(1517155329.526721) can0 04214001#0081914600000000
(1517155329.529614) can0 04294001#010100001A000000
(1517155329.532533) can0 08094021#0000800000000000
(1517155329.535418) can0 06214000#2900480000340B00
(1517155329.538110) can0 0A194005#00000000000080
(1517155329.543548) can0 06254000#00000000
(1517155329.546394) can0 0C394003#019100920A000000
(1517155329.554488) can0 06314000#4000000000000000
(1517155329.564143) can0 04214001#0081914600000000
(1517155329.567068) can0 04214006#0000000000000000
(1517155329.569962) can0 04294001#010100001A000000
(1517155329.572141) can0 063D4000#7B4C0000
(1517155329.575047) can0 0A014021#4000000000000002
(1517155329.576821) can0 06354000#0000
(1517155329.585124) can0 02294000#0000000002000000
(1517155329.587659) can0 0A114005#000000000800
(1517155329.593218) can0 0A014021#5000000000000002
(1517155329.613712) can0 04394000#00000054
(1517155329.624150) can0 04214001#0081914600000000
(1517155329.627056) can0 04294001#010100001A000000
(1517155329.636793) can0 06314005#0400000000000000
(1517155329.644242) can0 06314003#A2107000A2080000
(1517155329.663963) can0 04214001#0081914600000000
(1517155329.666877) can0 04214006#0000000000000000
(1517155329.669775) can0 04294001#010100001A000000
(1517155329.713649) can0 04394000#00000054
(1517155329.723825) can0 04214001#0081914600000000
(1517155329.726721) can0 04294001#010100001A000000
(1517155329.763756) can0 04214001#0081914600000000
(1517155329.766670) can0 04214006#0000000000000000
(1517155329.769568) can0 04294001#010100001A000000
(1517155329.772467) can0 0621401A#0005050080000000
(1517155329.775012) can0 02214000#002800000000
(1517155329.777888) can0 0A394021#0028000000000000
(1517155329.782925) can0 08194003#C0
(1517155329.785811) can0 06214000#2900480000340B00
(1517155329.793329) can0 06254000#00000000
(1517155329.803822) can0 06314000#4000000000000000
(1517155329.813445) can0 04394000#00000054
(1517155329.823636) can0 04214001#0081914600000000
(1517155329.826539) can0 04294001#010100001A000000
(1517155329.863568) can0 04214001#0081914600000000
(1517155329.866513) can0 04214006#0000000000000000
(1517155329.869406) can0 04294001#010100001A000000
(1517155329.913260) can0 04394000#00000054
(1517155329.923431) can0 04214001#0081914600000000
(1517155329.926335) can0 04294001#010100001A000000
(1517155329.943835) can0 0C214003#215301082019
(1517155329.963390) can0 04214001#0081914600000000
(1517155329.966345) can0 04214006#0000000000000000
(1517155329.969243) can0 04294001#010100001A000000
(1517155330.013057) can0 04394000#00000054
(1517155330.015952) can0 0621401A#0005050080000000
(1517155330.022948) can0 02214000#002800000000
(1517155330.025792) can0 04214001#0081914600000000
(1517155330.028687) can0 04294001#010100001A000000
(1517155330.033626) can0 06214000#2900480000340B00
(1517155330.042682) can0 06254000#00000000
(1517155330.045450) can0 0C014003#0551D75E88EC0000
(1517155330.053582) can0 06314000#4000000000000000
(1517155330.063205) can0 04214001#0081914600000000
(1517155330.066121) can0 04214006#0000000000000000
(1517155330.069018) can0 04294001#010100001A000000
(1517155330.071197) can0 063D4000#7B4C0000
(1517155330.072996) can0 06354000#0000
(1517155330.112866) can0 04394000#00000054
(1517155330.123228) can0 04214001#0081914600000000
(1517155330.126123) can0 04294001#010100001A000000
(1517155330.136237) can0 06314005#0400000000000000
(1517155330.144253) can0 06314003#A2107000A2080000
(1517155330.163067) can0 04214001#0081914600000000
(1517155330.166033) can0 04214006#0000000000000000
(1517155330.168926) can0 04294001#010100001A000000
(1517155330.193749) can0 06314005#0400000010000000
(1517155330.212602) can0 04394000#00000054
(1517155330.222875) can0 04214001#0081914600000000
(1517155330.225779) can0 04294001#010100001A000000
(1517155330.240698) can0 06314021#0000000000000084
(1517155330.244235) can0 0C194003#0558375925081F00
(1517155330.262896) can0 04214001#0081914600000000
(1517155330.265790) can0 0621401A#0005050080000000
(1517155330.268707) can0 04214006#0000000000000000
(1517155330.271606) can0 04294001#010100001A000000
(1517155330.274146) can0 02214000#002800000000
(1517155330.284083) can0 06214000#2900480000340B00
(1517155330.292366) can0 06254000#00000000
(1517155330.302883) can0 06314000#4000000000000000
(1517155330.312260) can0 04394000#00000054
(1517155330.322700) can0 04214001#0081914600000000
(1517155330.325593) can0 04294001#010100001A000000
(1517155330.344211) can0 0C114003#0558430226006640
(1517155330.362653) can0 04214001#0081914600000000
(1517155330.365568) can0 04214006#0000000000000000
(1517155330.368469) can0 04294001#010100001A000000
(1517155330.412079) can0 04394000#00000054
(1517155330.422556) can0 04214001#0081914600000000
(1517155330.425452) can0 04294001#010100001A000000
(1517155330.444295) can0 0C2D4003#1D38020000000000
(1517155330.462464) can0 04214001#0081914600000000
(1517155330.465384) can0 04214006#0000000000000000
(1517155330.468303) can0 04294001#010100001A000000
(1517155330.471581) can0 0C3D4000#47AE
(1517155330.494429) can0 0A114005#E30000000200
(1517155330.500287) can0 0E094000#001E0400106B
(1517155330.502062) can0 0E094021#001E
(1517155330.503841) can0 0E094003#000E
(1517155330.505606) can0 0E09401A#000E
(1517155330.509755) can0 0E094005#0006
(1517155330.512136) can0 04394000#00000054
(1517155330.515494) can0 0621401A#0005050080000000
(1517155330.522011) can0 02214000#002800000000
(1517155330.524851) can0 04214001#0081914600000000
(1517155330.527750) can0 04294001#010100001A000000
(1517155330.530671) can0 08094021#0000800000000000
(1517155330.533551) can0 06214000#2900480000340B00
(1517155330.536255) can0 0A194005#00000000000080
(1517155330.541628) can0 06254000#00000000
(1517155330.544486) can0 0C394003#019100920A000000
(1517155330.552707) can0 06314000#4000000000000000
(1517155330.562443) can0 04214001#0081914600000000
(1517155330.565369) can0 04214006#0000000000000000
(1517155330.568262) can0 04294001#010100001A000000
(1517155330.570424) can0 063D4000#7B4C0000
(1517155330.572220) can0 06354000#0000
(1517155330.575124) can0 0A014021#4000000000000002
(1517155330.582418) can0 02294000#0000000002000000
(1517155330.585394) can0 0A114005#E30000000200
(1517155330.593873) can0 0A014021#5000000000000002
(1517155330.611735) can0 04394000#00000054
(1517155330.622131) can0 04214001#0081914600000000
(1517155330.625038) can0 04294001#010100001A000000
(1517155330.635740) can0 06314005#0400000010000000
(1517155330.644238) can0 06314003#A2107000A2080000
(1517155330.662233) can0 04214001#0081914600000000
(1517155330.665153) can0 04214006#0000000000000000
(1517155330.668050) can0 04294001#010100001A000000
(1517155330.711625) can0 04394000#00000054
(1517155330.722001) can0 04214001#0081914600000000
(1517155330.724896) can0 04294001#010100001A000000
(1517155330.762166) can0 04214001#0081914600000000
(1517155330.765069) can0 0621401A#0005050080000000
(1517155330.767983) can0 04214006#0000000000000000
(1517155330.770882) can0 04294001#010100001A000000
(1517155330.773421) can0 02214000#002800000000
(1517155330.781919) can0 06214000#2900480000340B00
(1517155330.791455) can0 06254000#00000000
(1517155330.801894) can0 06314000#4000000000000000
(1517155330.811330) can0 04394000#00000054
(1517155330.821769) can0 04214001#0081914600000000
(1517155330.824688) can0 04294001#010100001A000000
(1517155330.836110) can0 0A394021#0028000000000000
(1517155330.837950) can0 08194003#C0
(1517155330.843105) can0 08194005#4A00000000
(1517155330.861800) can0 04214001#0081914600000000
(1517155330.864718) can0 04214006#0000000000000000
(1517155330.867623) can0 04294001#010100001A000000
(1517155330.879218) can0 0C394003#019100920A000000
(1517155330.911149) can0 04394000#00000054
(1517155330.921607) can0 04214001#0081914600000000
(1517155330.924507) can0 04294001#010100001A000000
(1517155330.943828) can0 0C214003#215301082019
(1517155330.961903) can0 04214001#0081914600000000
(1517155330.964821) can0 04214006#0000000000000000
(1517155330.967735) can0 04294001#010100001A000000
(1517155331.010996) can0 04394000#00000054
(1517155331.015227) can0 0621401A#0005050080000000
(1517155331.021104) can0 02214000#002800000000
(1517155331.023942) can0 04214001#0081914600000000
(1517155331.026846) can0 04294001#010100001A000000
(1517155331.031699) can0 06214000#2900480000340B00
(1517155331.040742) can0 06254000#00000000
(1517155331.044178) can0 0C014003#0551D75E88EC0000
(1517155331.051814) can0 06314000#4000000000000000
(1517155331.061511) can0 04214006#0000000000000000
(1517155331.063670) can0 063D4000#7B4C0000
(1517155331.071648) can0 04214001#0081914600000000
(1517155331.074547) can0 04294001#010100001A000000
(1517155331.076347) can0 06354000#0000
(1517155331.110799) can0 04394000#00000054
(1517155331.121197) can0 04214001#0081914600000000
(1517155331.124094) can0 04294001#010100001A000000
(1517155331.135286) can0 06314005#0400000010000000
(1517155331.144246) can0 06314003#A2107000A2080000
(1517155331.161422) can0 04214006#0000000000000000
(1517155331.171344) can0 04214001#0081914600000000
(1517155331.174238) can0 04294001#010100001A000000
(1517155331.178513) can0 08194005#0A00000000
(1517155331.210685) can0 04394000#00000054
(1517155331.221162) can0 04214001#0081914600000000
(1517155331.224042) can0 04294001#010100001A000000
(1517155331.241363) can0 06314021#0000000000000084
(1517155331.244260) can0 0C194003#0558375925081F00
(1517155331.261217) can0 04214006#0000000000000000
(1517155331.264656) can0 0621401A#0005050080000000
(1517155331.270879) can0 02214000#002800000000
(1517155331.273713) can0 04214001#0081914600000000
(1517155331.276614) can0 04294001#010100001A000000
(1517155331.280932) can0 06214000#2900480000340B00
(1517155331.290650) can0 06254000#00000000
(1517155331.301007) can0 06314000#4000000000000000
(1517155331.310543) can0 04394000#00000054
(1517155331.320927) can0 04214001#0081914600000000
(1517155331.323820) can0 04294001#010100001A000000
(1517155331.344200) can0 0C114003#0558430226006640
(1517155331.360819) can0 04214006#0000000000000000
(1517155331.370981) can0 04214001#0081914600000000
(1517155331.373873) can0 04294001#010100001A000000
(1517155331.410277) can0 04394000#00000054
(1517155331.420602) can0 04214001#0081914600000000
(1517155331.423499) can0 04294001#010100001A000000
(1517155331.444280) can0 0C2D4003#1D38020000000000
(1517155331.460657) can0 04214006#0000000000000000
(1517155331.470779) can0 04214001#0081914600000000
(1517155331.473674) can0 04294001#010100001A000000
(1517155331.475452) can0 0C3D4000#47AE
(1517155331.498669) can0 0E094000#001E0400106B
(1517155331.500488) can0 0E094021#001E
(1517155331.503107) can0 0E094003#000E
(1517155331.504866) can0 0E09401A#000E
(1517155331.508842) can0 0E094005#0006
(1517155331.510982) can0 04394000#00000054
(1517155331.514781) can0 0621401A#0005050080000000
(1517155331.520119) can0 02214000#002800000000
(1517155331.522978) can0 04214001#0081904600000000
(1517155331.525886) can0 04294001#010100001A000000
(1517155331.528798) can0 08094021#0000800000000000
(1517155331.531676) can0 06214000#2900480000340B00
(1517155331.534733) can0 0A194005#00000000000080
(1517155331.539934) can0 06254000#00000000
(1517155331.544253) can0 0C394003#019100920A000000
(1517155331.550911) can0 06314000#4000000000000000
(1517155331.560609) can0 04214006#0000000000000000
(1517155331.562787) can0 063D4000#7B4C0000
(1517155331.570631) can0 04214001#0081904600000000
(1517155331.573525) can0 04294001#010100001A000000
(1517155331.576425) can0 0A014021#4000000000000002
(1517155331.578204) can0 06354000#0000
(1517155331.581204) can0 02294000#0000000002000000
(1517155331.584500) can0 0A114005#E30000000200
(1517155331.595582) can0 0A014021#5000000000000002
(1517155331.609885) can0 04394000#00000054
(1517155331.620359) can0 04214001#0081904600000000
(1517155331.623254) can0 04294001#010100001A000000
(1517155331.634829) can0 06314005#0400000010000000
(1517155331.644244) can0 06314003#A2107000A2080000
(1517155331.660284) can0 04214006#0000000000000000
(1517155331.670441) can0 04214001#0081904600000000
(1517155331.673335) can0 04294001#010100001A000000
(1517155331.709672) can0 04394000#00000054
(1517155331.720064) can0 04214001#0081904600000000
(1517155331.722963) can0 04294001#010100001A000000
(1517155331.734183) can0 06314003#2010700002080000
(1517155331.760102) can0 04214006#0000000000000000
(1517155331.764274) can0 0621401A#0005050080000000
(1517155331.769958) can0 02214000#002800000000
(1517155331.772811) can0 04214001#0081904600000000
(1517155331.775751) can0 04294001#010100001A000000
(1517155331.780170) can0 06214000#2900480000340B00
(1517155331.789574) can0 06254000#00000000
(1517155331.800151) can0 06314000#4000000000000000
(1517155331.809585) can0 04394000#00000054
(1517155331.819881) can0 04214001#0081904600000000
(1517155331.822800) can0 04294001#010100001A000000
(1517155331.860055) can0 04214006#0000000000000000
(1517155331.870053) can0 04214001#0081904600000000
(1517155331.872987) can0 04294001#010100001A000000
(1517155331.909441) can0 04394000#00000054
(1517155331.919821) can0 04214001#0081904600000000
(1517155331.922715) can0 04294001#010100001A000000
(1517155331.943814) can0 0C214003#215301082019
(1517155331.959711) can0 04214006#0000000000000000
(1517155331.969948) can0 04214001#0081904600000000
(1517155331.972871) can0 04294001#010100001A000000
(1517155332.009124) can0 04394000#00000054
(1517155332.014135) can0 0621401A#0005050080000000
(1517155332.019192) can0 02214000#002800000000
(1517155332.022052) can0 04214001#0081904600000000
(1517155332.024957) can0 04294001#010100001A000000
(1517155332.029830) can0 06214000#2900480000340B00
(1517155332.038992) can0 06254000#00000000
(1517155332.044168) can0 0C014003#0551D75E88EC0000
(1517155332.050190) can0 06314000#4000000000000000
(1517155332.059605) can0 04214006#0000000000000000
(1517155332.061763) can0 063D4000#7B4C0000
(1517155332.069746) can0 04214001#0081904600000000
(1517155332.072640) can0 04294001#010100001A000000
(1517155332.074439) can0 06354000#0000
(1517155332.108981) can0 04394000#00000054
(1517155332.119328) can0 04214001#0081904600000000
(1517155332.122228) can0 04294001#010100001A000000
(1517155332.134375) can0 06314005#0400000010000000
(1517155332.144274) can0 06314003#2010700002080000
(1517155332.159550) can0 04214006#0000000000000000
(1517155332.169589) can0 04214001#0081904600000000
(1517155332.172486) can0 04294001#010100001A000000
(1517155332.208763) can0 04394000#00000054
(1517155332.219199) can0 04214001#0081904600000000
(1517155332.222094) can0 04294001#010100001A000000
(1517155332.242061) can0 06314021#0000000000000084
(1517155332.244854) can0 0C194003#0558375925081F00
(1517155332.259291) can0 04214006#0000000000000000
(1517155332.264406) can0 0621401A#0005050080000000
(1517155332.269090) can0 02214000#002800000000
(1517155332.271943) can0 04214001#0081904600000000
(1517155332.274842) can0 04294001#010100001A000000
(1517155332.279101) can0 06214000#2900480000340B00
(1517155332.288703) can0 06254000#00000000
(1517155332.299240) can0 06314000#4000000000000000
(1517155332.308597) can0 04394000#00000054
(1517155332.319030) can0 04214001#0081904600000000
(1517155332.321929) can0 04294001#010100001A000000
(1517155332.344196) can0 0C114003#0558430226006640
(1517155332.359308) can0 04214006#0000000000000000
(1517155332.369347) can0 04214001#0081904600000000
(1517155332.372282) can0 04294001#010100001A000000
(1517155332.408485) can0 04394000#00000054
(1517155332.418936) can0 04214001#0081904600000000
(1517155332.421829) can0 04294001#010100001A000000
(1517155332.444269) can0 0C2D4003#1D38020000000000
(1517155332.469109) can0 04214001#0081904600000000
(1517155332.472022) can0 04214006#0000000000000000
(1517155332.474928) can0 04294001#010100001A000000
(1517155332.476681) can0 0C3D4000#47AE
(1517155332.496599) can0 0E094000#001E0400106B
(1517155332.498395) can0 0E094021#001E
(1517155332.502992) can0 0E09401A#000E
(1517155332.504772) can0 0E094003#000E
(1517155332.508276) can0 04394000#00000054
(1517155332.510049) can0 0E094005#0006
(1517155332.513808) can0 0621401A#0005050080000000
(1517155332.518332) can0 02214000#002800000000
(1517155332.521186) can0 04214001#0081904600000000
(1517155332.524125) can0 04294001#010100001A000000
(1517155332.527470) can0 08094021#0000800000000000
(1517155332.530346) can0 06214000#2900480000340B00
(1517155332.533823) can0 0A194005#00000000000080
(1517155332.537986) can0 06254000#00000000
(1517155332.544242) can0 0C394003#019100920A000000
(1517155332.549446) can0 06314000#4000000000000000
(1517155332.557899) can0 063D4000#7B4C0000
(1517155332.569002) can0 04214001#0081904600000000
(1517155332.571915) can0 04214006#0000000000000000
(1517155332.574833) can0 04294001#010100001A000000
(1517155332.577735) can0 0A014021#4000000000000002
(1517155332.579513) can0 06354000#0000
(1517155332.582474) can0 02294000#0000000002000000
(1517155332.584976) can0 0A114005#E30000000200
(1517155332.596216) can0 0A014021#5000000000000002
(1517155332.608072) can0 04394000#00000054
(1517155332.618545) can0 04214001#0081904600000000
(1517155332.621444) can0 04294001#010100001A000000
(1517155332.633939) can0 06314005#0400000010000000
(1517155332.644282) can0 06314003#2010700002080000
(1517155332.668674) can0 04214001#0081904600000000
(1517155332.671587) can0 04214006#0000000000000000
(1517155332.674526) can0 04294001#010100001A000000
(1517155332.707893) can0 04394000#00000054
(1517155332.718203) can0 04214001#0081904600000000
(1517155332.721134) can0 04294001#010100001A000000
(1517155332.763953) can0 0621401A#0005050080000000
(1517155332.768087) can0 02214000#002800000000
(1517155332.770944) can0 04214001#0081904600000000
(1517155332.773863) can0 04214006#0000000000000000
(1517155332.776762) can0 04294001#010100001A000000
(1517155332.779741) can0 06214000#2900480000340B00
(1517155332.787979) can0 06254000#00000000
(1517155332.798217) can0 06314000#4000000000000000
(1517155332.807859) can0 04394000#00000054
(1517155332.818016) can0 04214001#0081904600000000
(1517155332.820911) can0 04294001#010100001A000000
(1517155332.868205) can0 04214001#0081904600000000
(1517155332.871118) can0 04214006#0000000000000000
(1517155332.874018) can0 04294001#010100001A000000
(1517155332.907453) can0 04394000#00000054
(1517155332.917826) can0 04214001#0081904600000000
(1517155332.920744) can0 04294001#010100001A000000
(1517155332.943811) can0 0C214003#215301082019
(1517155332.964436) can0 08094021#0000400000000000
(1517155332.968026) can0 04214001#0081904600000000
(1517155332.970942) can0 04214006#0000000000000000
(1517155332.973846) can0 04294001#010100001A000000
(1517155333.007258) can0 04394000#00000054
(1517155333.013947) can0 0621401A#0005050080000000
(1517155333.017331) can0 02214000#002800000000
(1517155333.020185) can0 04214001#0081904600000000
(1517155333.023085) can0 04294001#010100001A000000
(1517155333.028103) can0 06214000#2900480000340B00
(1517155333.037000) can0 06254000#00000000
(1517155333.044160) can0 0C014003#0551D75E88EC0000
(1517155333.048324) can0 06314000#4000000000000000
(1517155333.056902) can0 063D4000#7B4C0000
(1517155333.067860) can0 04214001#0081904600000000
(1517155333.070775) can0 04214006#0000000000000000
(1517155333.073695) can0 04294001#010100001A000000
(1517155333.075498) can0 06354000#0000
(1517155333.107091) can0 04394000#00000054
(1517155333.117487) can0 04214001#0081904600000000
(1517155333.120422) can0 04294001#010100001A000000
(1517155333.133474) can0 06314005#0400000010000000
(1517155333.144275) can0 06314003#2010700002080000
(1517155333.167649) can0 04214001#0081904600000000
(1517155333.170603) can0 04214006#0000000000000000
(1517155333.173542) can0 04294001#010100001A000000
(1517155333.206934) can0 04394000#00000054
(1517155333.217270) can0 04214001#0081904600000000
(1517155333.220169) can0 04294001#010100001A000000
(1517155333.242695) can0 06314021#0000000000000084
(1517155333.245492) can0 0C194003#0558375925081F00
(1517155333.263683) can0 0621401A#0005050080000000
(1517155333.267138) can0 02214000#002800000000
(1517155333.269996) can0 04214001#0081904600000000
(1517155333.272915) can0 04214006#0000000000000000
(1517155333.275815) can0 04294001#010100001A000000
(1517155333.278755) can0 06214000#2900480000340B00
(1517155333.286818) can0 06254000#00000000
(1517155333.297354) can0 06314000#4000000000000000
(1517155333.306731) can0 04394000#00000054
(1517155333.317089) can0 04214001#0081904600000000
(1517155333.319983) can0 04294001#010100001A000000
(1517155333.344184) can0 0C114003#0558430226006640
(1517155333.351330) can0 08094021#0000487800000000
(1517155333.361769) can0 0A394021#602AE176A879F31F
(1517155333.367305) can0 04214001#0081904600000000
(1517155333.370222) can0 04214006#0000000000000000
(1517155333.371824) can0 08194003#C0
(1517155333.374723) can0 04294001#010100001A000000
(1517155333.380609) can0 0A394021#612A6A879A394FD7
(1517155333.382901) can0 08194003#C0
(1517155333.399622) can0 0A394021#622A6A879F31F6A8
(1517155333.402921) can0 08194003#C0
(1517155333.406526) can0 04394000#00000054
(1517155333.417003) can0 04214001#0081904600000000
(1517155333.419676) can0 0A394021#632A79A39433F720
(1517155333.422577) can0 04294001#010100001A000000
(1517155333.424175) can0 08194003#C0
(1517155333.438649) can0 0A394021#642A4175DAA0E4D0
(1517155333.444258) can0 0C2D4003#1D38020000000000
(1517155333.452922) can0 08194003#C0
(1517155333.456578) can0 0A394021#652AA174283DA659
(1517155333.462917) can0 08194003#C0
(1517155333.467183) can0 04214001#0081904600000000
(1517155333.470096) can0 04214006#0000000000000000
(1517155333.473040) can0 04294001#010100001A000000
(1517155333.475855) can0 0A394021#662AFC0000000000
(1517155333.477645) can0 0C3D4000#47AE
(1517155333.479256) can0 08194003#C0
(1517155333.481540) can0 08194005#4A80000000
(1517155333.494701) can0 0E094000#001E0400106B
(1517155333.496532) can0 0E094021#001E
(1517155333.498308) can0 0E094005#0006
(1517155333.500088) can0 0E094003#000E
(1517155333.502047) can0 0E09401A#000E
(1517155333.506392) can0 04394000#00000054
(1517155333.513461) can0 0621401A#0005050080000000
(1517155333.516560) can0 02214000#002800000000
(1517155333.519419) can0 04214001#0081904600000000
(1517155333.522419) can0 04294001#010100001A000000
(1517155333.527143) can0 06214000#2900480000340B00
(1517155333.530038) can0 08094021#0000487800000000
(1517155333.532915) can0 0A194005#00000000000080
(1517155333.536075) can0 06254000#00000000
(1517155333.544235) can0 0C394003#019100920A000000
(1517155333.547562) can0 06314000#4000000000000000
(1517155333.555997) can0 063D4000#7B4C0000
(1517155333.566915) can0 04214001#0081904600000000
(1517155333.569829) can0 04214006#0000000000000000
(1517155333.572728) can0 04294001#010100001A000000
(1517155333.574566) can0 06354000#0000
(1517155333.577467) can0 0A014021#4000000000000002
(1517155333.580426) can0 02294000#0000000002000000
(1517155333.582925) can0 0A114005#E30000000200
(1517155333.595974) can0 0A014021#5000000000000002
(1517155333.606304) can0 04394000#00000054
(1517155333.616540) can0 04214001#0081904600000000
(1517155333.619439) can0 04294001#010100001A000000
(1517155333.633026) can0 06314005#0400000010000000
(1517155333.644270) can0 06314003#2010700002080000
(1517155333.666768) can0 04214001#0081904600000000
(1517155333.669681) can0 04214006#0000000000000000
(1517155333.672579) can0 04294001#010100001A000000
(1517155333.706035) can0 04394000#00000054
(1517155333.716452) can0 04214001#0081904600000000
(1517155333.719347) can0 04294001#010100001A000000
(1517155333.762958) can0 0621401A#0005050080000000
(1517155333.766302) can0 02214000#002800000000
(1517155333.769155) can0 04214001#0081904600000000
(1517155333.772073) can0 04214006#0000000000000000
(1517155333.774979) can0 04294001#010100001A000000
(1517155333.777913) can0 06214000#2900480000340B00
(1517155333.785875) can0 06254000#00000000
(1517155333.796293) can0 06314000#4000000000000000
(1517155333.805829) can0 04394000#00000054
(1517155333.816263) can0 04214001#0081904600000000
(1517155333.819203) can0 04294001#010100001A000000
(1517155333.823219) can0 08194005#0A80000000
(1517155333.866331) can0 04214001#0081904600000000
(1517155333.869247) can0 04214006#0000000000000000
(1517155333.872147) can0 04294001#010100001A000000
(1517155333.905780) can0 04394000#00000054
(1517155333.916022) can0 04214001#0081904600000000
(1517155333.918914) can0 04294001#010100001A000000
(1517155333.943812) can0 0C214003#215301082019
(1517155333.966194) can0 04214001#0081904600000000
(1517155333.969107) can0 04214006#0000000000000000
(1517155333.972005) can0 04294001#010100001A000000
(1517155334.005588) can0 04394000#00000054
(1517155334.012846) can0 0621401A#0005050080000000
(1517155334.015600) can0 02214000#002800000000
(1517155334.018542) can0 04214001#0081904600000000
(1517155334.021459) can0 04294001#010100001A000000
(1517155334.026099) can0 06214000#2900480000340B00
(1517155334.035255) can0 06254000#00000000
(1517155334.044179) can0 0C014003#0551D75E88EC0000
(1517155334.047109) can0 06314000#4000000000000000
(1517155334.055124) can0 063D4000#7B4C0000
(1517155334.065983) can0 04214001#0081904600000000
(1517155334.068900) can0 04214006#0000000000000000
(1517155334.071798) can0 04294001#010100001A000000
(1517155334.073597) can0 06354000#0000
(1517155334.105293) can0 04394000#00000054
(1517155334.115669) can0 04214001#0081904600000000
(1517155334.118607) can0 04294001#010100001A000000
(1517155334.132557) can0 06314005#0400000010000000
(1517155334.144257) can0 06314003#2010700002080000
(1517155334.165884) can0 04214001#0081904600000000
(1517155334.168797) can0 04214006#0000000000000000
(1517155334.171688) can0 04294001#010100001A000000
(1517155334.205087) can0 04394000#00000054
(1517155334.215581) can0 04214001#0081904600000000
(1517155334.218516) can0 04294001#010100001A000000
(1517155334.243376) can0 06314021#0000000000000084
(1517155334.246181) can0 0C194003#0558375925081F00
(1517155334.262703) can0 0621401A#0005050080000000
(1517155334.265369) can0 02214000#002800000000
(1517155334.268242) can0 04214001#0081904600000000
(1517155334.271162) can0 04214006#0000000000000000
(1517155334.274060) can0 04294001#010100001A000000
(1517155334.276944) can0 06214000#2900480000340B00
(1517155334.285043) can0 06254000#00000000
(1517155334.295375) can0 06314000#4000000000000000
(1517155334.304938) can0 04394000#00000054
(1517155334.315375) can0 04214001#0081904600000000
(1517155334.318269) can0 04294001#010100001A000000
(1517155334.344194) can0 0C114003#0558430226006640
(1517155334.365389) can0 04214001#0081904600000000
(1517155334.368303) can0 04214006#0000000000000000
(1517155334.371203) can0 04294001#010100001A000000
(1517155334.404698) can0 04394000#00000054
(1517155334.415051) can0 04214001#0081904600000000
(1517155334.417950) can0 04294001#010100001A000000
(1517155334.444256) can0 0C2D4003#1D38020000000000
(1517155334.465189) can0 04214001#0081904600000000
(1517155334.468105) can0 04214006#0000000000000000
(1517155334.471004) can0 04294001#010100001A000000
(1517155334.472761) can0 0C3D4000#47AE
(1517155334.492884) can0 0E094000#001E0400106B
(1517155334.494716) can0 0E094021#001E
(1517155334.496497) can0 0E094005#0006
(1517155334.498296) can0 0E094003#000E
(1517155334.501392) can0 0E09401A#000E
(1517155334.504552) can0 04394000#00000054
(1517155334.512468) can0 0621401A#0005050080000000
(1517155334.515012) can0 02214000#002800000000
(1517155334.517866) can0 04214001#0081904600000000
(1517155334.520766) can0 04294001#010100001A000000
(1517155334.525170) can0 06214000#2900480000340B00
(1517155334.528644) can0 08094021#0000487800000000
(1517155334.532022) can0 0A194005#00000000000080
(1517155334.534220) can0 06254000#00000000
(1517155334.544240) can0 0C394003#019100920A000000
(1517155334.547180) can0 06314000#4000000000000000
(1517155334.554178) can0 063D4000#7B4C0000
(1517155334.565058) can0 04214001#0081904600000000
(1517155334.567975) can0 04214006#0000000000000000
(1517155334.570873) can0 04294001#010100001A000000
(1517155334.572673) can0 06354000#0000
(1517155334.575638) can0 02294000#0000000002000000
(1517155334.578533) can0 0A014021#4000000000000002
(1517155334.581768) can0 0A114005#E30000000200
(1517155334.597528) can0 0A014021#5000000000000002
(1517155334.604306) can0 04394000#00000054
(1517155334.614691) can0 04214001#0081904600000000
(1517155334.617585) can0 04294001#010100001A000000
(1517155334.632238) can0 06314005#0400000010000000
(1517155334.644258) can0 06314003#2010700002080000
(1517155334.664917) can0 04214001#0081904600000000
(1517155334.667825) can0 04214006#0000000000000000
(1517155334.670724) can0 04294001#010100001A000000
(1517155334.704202) can0 04394000#00000054
(1517155334.714618) can0 04214001#0081904600000000
(1517155334.717531) can0 04294001#010100001A000000
(1517155334.762667) can0 0621401A#0005050080000000
(1517155334.765201) can0 02214000#002800000000
(1517155334.768060) can0 04214001#0081904600000000
(1517155334.770977) can0 04214006#0000000000000000
(1517155334.773878) can0 04294001#010100001A000000
(1517155334.776756) can0 06214000#2900480000340B00
(1517155334.784015) can0 06254000#00000000
(1517155334.794458) can0 06314000#4000000000000000
(1517155334.803914) can0 04394000#00000054
(1517155334.814411) can0 04214001#0081904600000000
(1517155334.817308) can0 04294001#010100001A000000
(1517155334.853010) can0 08094021#0346487800000000
(1517155334.864507) can0 04214001#0081904600000000
(1517155334.867423) can0 04214006#0000000000000000
(1517155334.870320) can0 04294001#010100001A000000
(1517155334.903690) can0 04394000#00000054
(1517155334.914134) can0 04214001#0081904600000000
(1517155334.917030) can0 04294001#010100001A000000
(1517155334.943804) can0 0C214003#215301082019
(1517155334.964305) can0 04214001#0081904600000000
(1517155334.967269) can0 04214006#0000000000000000
(1517155334.970163) can0 04294001#010100001A000000
(1517155335.003513) can0 04394000#00000054
(1517155335.012195) can0 0621401A#0005050080000000
(1517155335.014726) can0 02214000#002800000000
(1517155335.017585) can0 04214001#0081904600000000
(1517155335.020545) can0 04294001#010100001A000000
(1517155335.024323) can0 06214000#2900480000340B00
(1517155335.033265) can0 06254000#00000000
(1517155335.044169) can0 0C014003#0551D75E88EC0000
(1517155335.047102) can0 06314000#4000000000000000
(1517155335.053239) can0 063D4000#7B4C0000
(1517155335.064242) can0 04214001#0081904600000000
(1517155335.067157) can0 04214006#0000000000000000
(1517155335.070075) can0 04294001#010100001A000000
(1517155335.071873) can0 06354000#0000
(1517155335.103344) can0 04394000#00000054
(1517155335.113742) can0 04214001#0081904600000000
(1517155335.116643) can0 04294001#010100001A000000
(1517155335.131654) can0 06314005#0400000010000000
(1517155335.144248) can0 06314003#2010700002080000
(1517155335.163950) can0 04214001#0081904600000000
(1517155335.166866) can0 04214006#0000000000000000
(1517155335.169762) can0 04294001#010100001A000000
(1517155335.203232) can0 04394000#00000054
(1517155335.213635) can0 04214001#0081904600000000
(1517155335.216531) can0 04294001#010100001A000000
(1517155335.243977) can0 06314021#0000000000000084
(1517155335.246771) can0 0C194003#0558375925081F00
(1517155335.262361) can0 0621401A#0005050080000000
(1517155335.264899) can0 02214000#002800000000
(1517155335.267764) can0 04214001#0081904600000000
(1517155335.270678) can0 04214006#0000000000000000
(1517155335.273577) can0 04294001#010100001A000000
(1517155335.276463) can0 06214000#2900480000340B00
(1517155335.283095) can0 06254000#00000000
(1517155335.293477) can0 06314000#4000000000000000
(1517155335.303090) can0 04394000#00000054
(1517155335.313567) can0 04214001#0081904600000000
(1517155335.316467) can0 04294001#010100001A000000
(1517155335.344173) can0 0C114003#0558430226006640
(1517155335.363567) can0 04214001#0081904600000000
(1517155335.366484) can0 04214006#0000000000000000
(1517155335.369381) can0 04294001#010100001A000000
(1517155335.402759) can0 04394000#00000054
(1517155335.413235) can0 04214001#0081904600000000
(1517155335.416130) can0 04294001#010100001A000000
(1517155335.444248) can0 0C2D4003#1D38020000000000
(1517155335.463409) can0 04214001#0081904600000000
(1517155335.466324) can0 04214006#0000000000000000
(1517155335.469221) can0 04294001#010100001A000000
(1517155335.470980) can0 0C3D4000#47AE
(1517155335.490961) can0 0E094000#001E0400106B
(1517155335.492795) can0 0E094021#001E
(1517155335.494575) can0 0E094003#000E
(1517155335.496373) can0 0E094005#0002
(1517155335.500690) can0 0E09401A#000E
(1517155335.502829) can0 04394000#00000054
(1517155335.511812) can0 0621401A#0005050080000000
(1517155335.514347) can0 02214000#002800000000
(1517155335.517212) can0 04214001#0081904600000000
(1517155335.520143) can0 04294001#010100001A000000
(1517155335.523344) can0 06214000#2900480000340B00
(1517155335.529169) can0 08094021#0346487800000000
(1517155335.531860) can0 0A194005#00000000000080
(1517155335.534060) can0 06254000#00000000
(1517155335.544226) can0 0C394003#019100920A000000
(1517155335.547161) can0 06314000#4000000000000000
(1517155335.552218) can0 063D4000#7B4C0000
(1517155335.563195) can0 04214001#0081904600000000
(1517155335.566119) can0 04214006#0000000000000000
(1517155335.569014) can0 04294001#010100001A000000
(1517155335.570813) can0 06354000#0000
(1517155335.573774) can0 02294000#0000000002000000
(1517155335.578179) can0 0A014021#4000000000000002
(1517155335.580871) can0 0A114005#E30000000200
(1517155335.597180) can0 0A014021#5000000000000002
(1517155335.602431) can0 04394000#00000054
(1517155335.612874) can0 04214001#0081904600000000
(1517155335.615766) can0 04294001#010100001A000000
(1517155335.631197) can0 06314005#0400000010000000
(1517155335.644256) can0 06314003#2010700002080000
(1517155335.663012) can0 04214001#0081904600000000
(1517155335.665935) can0 04214006#0000000000000000
(1517155335.668827) can0 04294001#010100001A000000
(1517155335.702205) can0 04394000#00000054
(1517155335.712661) can0 04214001#0081904600000000
(1517155335.715556) can0 04294001#010100001A000000
(1517155335.761969) can0 0621401A#0005050080000000
(1517155335.764503) can0 02214000#002800000000
(1517155335.767384) can0 04214001#0081904600000000
(1517155335.770300) can0 04214006#0000000000000000
(1517155335.773224) can0 04294001#010100001A000000
(1517155335.776145) can0 06214000#2900480000340B00
(1517155335.782137) can0 06254000#00000000
(1517155335.792720) can0 06314000#4000000000000000
(1517155335.802012) can0 04394000#00000054
(1517155335.812495) can0 04214001#0081904600000000
(1517155335.815392) can0 04294001#010100001A000000
(1517155335.862697) can0 04214001#0081904600000000
(1517155335.865660) can0 04214006#0000000000000000
(1517155335.868555) can0 04294001#010100001A000000
(1517155335.901891) can0 04394000#00000054
(1517155335.912429) can0 04214001#0081904600000000
(1517155335.915323) can0 04294001#010100001A000000
(1517155335.943783) can0 0C214003#215301082019
(1517155335.962444) can0 04214001#0081904600000000
(1517155335.965358) can0 04214006#0000000000000000
(1517155335.968255) can0 04294001#010100001A000000
(1517155336.001705) can0 04394000#00000054
(1517155336.011785) can0 0621401A#0005050080000000
(1517155336.014319) can0 02214000#002800000000
(1517155336.017180) can0 04214001#0081904600000000
(1517155336.020078) can0 04294001#010100001A000000
(1517155336.022957) can0 06214000#2900480000340B00
(1517155336.031478) can0 06254000#00000000
(1517155336.043712) can0 06314000#4000000000000000
(1517155336.046472) can0 0C014003#0551D75E88EC0000
(1517155336.051289) can0 063D4000#7B4C0000
(1517155336.062267) can0 04214001#0081904600000000
(1517155336.065196) can0 04214006#0000000000000000
(1517155336.068089) can0 04294001#010100001A000000
(1517155336.070927) can0 08094021#0347487800000000
(1517155336.072704) can0 06354000#0000
(1517155336.101561) can0 04394000#00000054
(1517155336.112177) can0 04214001#0081904600000000
(1517155336.115083) can0 04294001#010100001A000000
(1517155336.130746) can0 06314005#0400000010000000
(1517155336.144241) can0 06314003#2010700002080000
(1517155336.162077) can0 04214001#0081904600000000
(1517155336.165021) can0 04214006#0000000000000000
(1517155336.171894) can0 04294001#010100001A000000
(1517155336.201271) can0 04394000#00000054
(1517155336.212168) can0 04214001#0081904600000000
(1517155336.215064) can0 04294001#010100001A000000
(1517155336.244188) can0 0C194003#0558375925081F00
(1517155336.247066) can0 06314021#0000000000000084
(1517155336.261657) can0 0621401A#0005050080000000
(1517155336.264193) can0 02214000#002800000000
(1517155336.267112) can0 04214006#0000000000000000
(1517155336.271671) can0 04214001#0081904600000000
(1517155336.274571) can0 04294001#010100001A000000
(1517155336.277450) can0 06214000#2900480000340B00
(1517155336.281248) can0 06254000#00000000
(1517155336.291612) can0 06314000#4000000000000000
(1517155336.301088) can0 04394000#00000054
(1517155336.311925) can0 04214001#0081904600000000
(1517155336.321808) can0 04294001#010100001A000000
(1517155336.344158) can0 0C114003#0558430226006640
(1517155336.361899) can0 04214006#0000000000000000
(1517155336.371376) can0 04214001#0081904600000000
(1517155336.374270) can0 04294001#010100001A000000
(1517155336.400943) can0 04394000#00000054
(1517155336.421544) can0 04214001#0081904600000000
(1517155336.424438) can0 04294001#010100001A000000
(1517155336.444243) can0 0C2D4003#1D38020000000000
(1517155336.461694) can0 04214006#0000000000000000
(1517155336.463452) can0 0C3D4000#47AE
(1517155336.471216) can0 04214001#0081904600000000
(1517155336.474110) can0 04294001#010100001A000000
(1517155336.489111) can0 0E094000#001E0400106B
(1517155336.490925) can0 0E094021#001E
(1517155336.493166) can0 0E094003#000E
(1517155336.494969) can0 0E094005#0002
(1517155336.500080) can0 0E09401A#000E
(1517155336.502219) can0 04394000#00000054
(1517155336.511138) can0 0621401A#0005050080000000
(1517155336.513682) can0 02214000#002800000000
(1517155336.521393) can0 04214001#0081904600000000
(1517155336.524290) can0 04294001#010100001A000000
(1517155336.527237) can0 06214000#2900480000340B00
(1517155336.530070) can0 08094021#0347487800000000
(1517155336.532269) can0 06254000#00000000
(1517155336.534973) can0 0A194005#00000000000080
(1517155336.541466) can0 06314000#4000000000000000
(1517155336.544326) can0 0C394003#019100920A000000
(1517155336.550348) can0 063D4000#7B4C0000
(1517155336.561569) can0 04214006#0000000000000000
(1517155336.563360) can0 06354000#0000
(1517155336.571140) can0 02294000#0000000002000000
(1517155336.573998) can0 04214001#0081904600000000
(1517155336.576898) can0 04294001#010100001A000000
(1517155336.579799) can0 0A014021#4000000000000002
(1517155336.582296) can0 0A114005#E30000000200
(1517155336.598822) can0 0A014021#5000000000000002
(1517155336.600955) can0 04394000#00000054
(1517155336.621156) can0 04214001#0081904600000000
(1517155336.624049) can0 04294001#010100001A000000
(1517155336.630289) can0 06314005#0400000010000000
(1517155336.644245) can0 06314003#2010700002080000
(1517155336.661226) can0 04214006#0000000000000000
(1517155336.670841) can0 04214001#0081904600000000
(1517155336.673735) can0 04294001#010100001A000000
(1517155336.700307) can0 04394000#00000054
(1517155336.721110) can0 04214001#0081904600000000
(1517155336.724021) can0 04294001#010100001A000000
(1517155336.760731) can0 02214000#002800000000
(1517155336.763631) can0 0621401A#0005050080000000
(1517155336.766556) can0 04214006#0000000000000000
(1517155336.770648) can0 04214001#0081904600000000
(1517155336.773549) can0 04294001#010100001A000000
(1517155336.776427) can0 06214000#2900480000340B00
(1517155336.780405) can0 06254000#00000000
(1517155336.790685) can0 06314000#4000000000000000
(1517155336.800247) can0 04394000#00000054
(1517155336.820797) can0 04214001#0081904600000000
(1517155336.823714) can0 04294001#010100001A000000
(1517155336.870444) can0 04214001#0081904600000000
(1517155336.873368) can0 04214006#0000000000000000
(1517155336.876262) can0 04294001#010100001A000000
(1517155336.899942) can0 04394000#00000054
(1517155336.920716) can0 04214001#0081904600000000
(1517155336.923609) can0 04294001#010100001A000000
(1517155336.943787) can0 0C214003#215301082019
(1517155336.970266) can0 04214001#0081904600000000
(1517155336.973219) can0 04214006#0000000000000000
(1517155336.976121) can0 04294001#010100001A000000
(1517155336.999772) can0 04394000#00000054
(1517155337.010056) can0 02214000#002800000000
(1517155337.012949) can0 0621401A#0005050080000000
(1517155337.020452) can0 04214001#0081904600000000
(1517155337.023346) can0 04294001#010100001A000000
(1517155337.026267) can0 06214000#2900480000340B00
(1517155337.029504) can0 06254000#00000000
(1517155337.040507) can0 06314000#4000000000000000
(1517155337.044142) can0 0C014003#0551D75E88EC0000
(1517155337.049562) can0 063D4000#7B4C0000
(1517155337.059437) can0 06354000#0000
(1517155337.070101) can0 04214001#0081904600000000
(1517155337.073055) can0 04214006#0000000000000000
(1517155337.075955) can0 04294001#010100001A000000
(1517155337.080254) can0 08094021#0348487800000000
(1517155337.099593) can0 04394000#00000054
(1517155337.120349) can0 04214001#0081904600000000
(1517155337.123244) can0 04294001#010100001A000000
(1517155337.129844) can0 06314005#0400000010000000
(1517155337.144242) can0 06314003#2010700002080000
(1517155337.170036) can0 04214001#0081904600000000
(1517155337.172948) can0 04214006#0000000000000000
(1517155337.175847) can0 04294001#010100001A000000
(1517155337.199483) can0 04394000#00000054
(1517155337.220142) can0 04214001#0081904600000000
(1517155337.223056) can0 04294001#010100001A000000
(1517155337.244175) can0 0C194003#0558375925081F00
(1517155337.247061) can0 06314021#0000000000000084
(1517155337.259976) can0 02214000#002800000000
(1517155337.262869) can0 0621401A#0005050080000000
(1517155337.269712) can0 04214001#0081904600000000
(1517155337.272627) can0 04214006#0000000000000000
(1517155337.275531) can0 04294001#010100001A000000
(1517155337.278412) can0 06214000#2900480000340B00
(1517155337.280648) can0 06254000#00000000
(1517155337.289751) can0 06314000#4000000000000000
(1517155337.299361) can0 04394000#00000054
(1517155337.319882) can0 04214001#0081904600000000
(1517155337.322774) can0 04294001#010100001A000000
(1517155337.344160) can0 0C114003#0558430226006640
(1517155337.369496) can0 04214001#0081904600000000
(1517155337.372407) can0 04214006#0000000000000000
(1517155337.375305) can0 04294001#010100001A000000
(1517155337.399017) can0 04394000#00000054
(1517155337.419836) can0 04214001#0081904600000000
(1517155337.422754) can0 04294001#010100001A000000
(1517155337.444242) can0 0C2D4003#1D38020000000000
(1517155337.458820) can0 0C3D4000#47AE
(1517155337.469353) can0 04214001#0081904600000000
(1517155337.472265) can0 04214006#0000000000000000
(1517155337.475165) can0 04294001#010100001A000000
(1517155337.487267) can0 0E094000#001E0400106B
(1517155337.489080) can0 0E094021#001E
(1517155337.490838) can0 0E09401A#000E
(1517155337.493158) can0 0E094003#000E
(1517155337.494962) can0 0E094005#0002
(1517155337.498836) can0 04394000#00000054
(1517155337.509039) can0 02214000#002800000000
(1517155337.511932) can0 0621401A#0005050080000000
(1517155337.519515) can0 04214001#0081904600000000
(1517155337.522409) can0 04294001#010100001A000000
(1517155337.525293) can0 06214000#2900480000340B00
(1517155337.528568) can0 06254000#00000000
(1517155337.531408) can0 08094021#0348487800000000
(1517155337.534106) can0 0A194005#00000000000080
(1517155337.539564) can0 06314000#4000000000000000
(1517155337.544224) can0 0C394003#019100920A000000
(1517155337.548508) can0 063D4000#7B4C0000
(1517155337.558744) can0 06354000#0000
(1517155337.569238) can0 02294000#0000000002000000
(1517155337.572098) can0 04214001#0081904600000000
(1517155337.575022) can0 04214006#0000000000000000
(1517155337.577916) can0 04294001#010100001A000000
(1517155337.580816) can0 0A014021#4000000000000002
(1517155337.583315) can0 0A114005#E30000000200
(1517155337.598674) can0 04394000#00000054
(1517155337.601552) can0 0A014021#5000000000000002
(1517155337.619327) can0 04214001#0081904600000000
(1517155337.622226) can0 04294001#010100001A000000
(1517155337.629380) can0 06314005#0400000010000000
(1517155337.644245) can0 06314003#2010700002080000
(1517155337.668938) can0 04214001#0081904600000000
(1517155337.671852) can0 04214006#0000000000000000
(1517155337.674751) can0 04294001#010100001A000000
(1517155337.698470) can0 04394000#00000054
(1517155337.719144) can0 04214001#0081904600000000
(1517155337.722038) can0 04294001#010100001A000000
(1517155337.759155) can0 02214000#002800000000
(1517155337.762046) can0 0621401A#0005050080000000
(1517155337.768829) can0 04214001#0081904600000000
(1517155337.771743) can0 04214006#0000000000000000
(1517155337.774643) can0 04294001#010100001A000000
(1517155337.777543) can0 06214000#2900480000340B00
(1517155337.779741) can0 06254000#00000000
(1517155337.788925) can0 06314000#4000000000000000
(1517155337.798461) can0 04394000#00000054
(1517155337.819036) can0 04214001#0081904600000000
(1517155337.821931) can0 04294001#010100001A000000
(1517155337.868646) can0 04214001#0081904600000000
(1517155337.871558) can0 04214006#0000000000000000
(1517155337.874456) can0 04294001#010100001A000000
(1517155337.898169) can0 04394000#00000054
(1517155337.918930) can0 04214001#0081904600000000
(1517155337.921843) can0 04294001#010100001A000000
(1517155337.943789) can0 0C214003#215301082019
(1517155337.968442) can0 04214001#0081904600000000
(1517155337.971355) can0 04214006#0000000000000000
(1517155337.974255) can0 04294001#010100001A000000
(1517155337.997995) can0 04394000#00000054
(1517155338.008073) can0 02214000#002800000000
(1517155338.010966) can0 0621401A#0005050080000000
(1517155338.018663) can0 04214001#0081904600000000
(1517155338.021584) can0 04294001#010100001A000000
(1517155338.024541) can0 06214000#2900480000340B00
(1517155338.027747) can0 06254000#00000000
(1517155338.038744) can0 06314000#4000000000000000
(1517155338.044139) can0 0C014003#0551D75E88EC0000
(1517155338.047671) can0 063D4000#7B4C0000
(1517155338.057802) can0 06354000#0000
(1517155338.068218) can0 04214001#0081904600000000
(1517155338.071131) can0 04214006#0000000000000000
(1517155338.074030) can0 04294001#010100001A000000
(1517155338.097792) can0 04394000#00000054
(1517155338.118485) can0 04214001#0081904600000000
(1517155338.121418) can0 04294001#010100001A000000
(1517155338.128936) can0 06314005#0400000010000000
(1517155338.144231) can0 06314003#2010700002080000
(1517155338.168015) can0 04214001#0081904600000000
(1517155338.170926) can0 04214006#0000000000000000
(1517155338.173823) can0 04294001#010100001A000000
(1517155338.197798) can0 04394000#00000054
(1517155338.218439) can0 04214001#0081904600000000
(1517155338.221352) can0 04294001#010100001A000000
(1517155338.244178) can0 0C194003#0558375925081F00
(1517155338.247054) can0 06314021#0000000000000084
(1517155338.257950) can0 02214000#002800000000
(1517155338.260848) can0 0621401A#0005050080000000
(1517155338.267851) can0 04214001#0081904600000000
(1517155338.270766) can0 04214006#0000000000000000
(1517155338.273664) can0 04294001#010100001A000000
(1517155338.276568) can0 06214000#2900480000340B00
(1517155338.278783) can0 06254000#00000000
(1517155338.288051) can0 06314000#4000000000000000
(1517155338.297422) can0 04394000#00000054
(1517155338.316919) can0 08094021#0000487800000000
(1517155338.319778) can0 04214001#0081904600000000
(1517155338.322678) can0 04294001#010100001A000000
(1517155338.325384) can0 0A394021#602AE176A879F31F
(1517155338.328017) can0 08194003#C0
(1517155338.343782) can0 0A394021#612A6A879A394FD7
(1517155338.346560) can0 0C114003#0558430226006640
(1517155338.352897) can0 08194003#C0
(1517155338.361803) can0 0A394021#622A6A879F31F6A8
(1517155338.367638) can0 04214001#0081904600000000
(1517155338.370555) can0 04214006#0000000000000000
(1517155338.373455) can0 04294001#010100001A000000
(1517155338.375054) can0 08194003#C0
(1517155338.379855) can0 0A394021#632A79A39433F318
(1517155338.382875) can0 08194003#C0
(1517155338.397177) can0 04394000#00000054
(1517155338.399851) can0 0A394021#642A69D428314A1F
(1517155338.402890) can0 08194003#C0
(1517155338.417792) can0 04214001#0081904600000000
(1517155338.420686) can0 04294001#010100001A000000
(1517155338.423446) can0 0A394021#652A4186D4A0F417
(1517155338.428031) can0 08194003#C0
(1517155338.442006) can0 0A394021#662AFC0000000000
(1517155338.444865) can0 0C2D4003#1D38020000000000
(1517155338.452559) can0 08194005#4A80000000
(1517155338.454159) can0 08194003#C0
(1517155338.467517) can0 04214001#0081904600000000
(1517155338.470455) can0 04214006#0000000000000000
(1517155338.473355) can0 04294001#010100001A000000
(1517155338.485377) can0 0E094000#001E0400106B
(1517155338.487231) can0 0E094021#001E
(1517155338.489011) can0 0E094003#000E
(1517155338.490770) can0 0E09401A#000E
(1517155338.492569) can0 0E094005#0002
(1517155338.496968) can0 04394000#00000054
(1517155338.507071) can0 02214000#002800000000
(1517155338.510125) can0 0621401A#0005050080000000
(1517155338.517608) can0 04214001#0081904600000000
(1517155338.520502) can0 04294001#010100001A000000
(1517155338.523381) can0 06214000#2900480000340B00
(1517155338.526725) can0 06254000#00000000
(1517155338.529420) can0 0A194005#00000000000080
(1517155338.532319) can0 08094021#0000487800000000
(1517155338.537683) can0 06314000#4000000000000000
(1517155338.544218) can0 0C394003#019100920A000000
(1517155338.546738) can0 063D4000#7B4C0000
(1517155338.554018) can0 08194005#0A80000000
(1517155338.556633) can0 06354000#0000
(1517155338.567399) can0 02294000#0000000002000000
(1517155338.570247) can0 04214001#0081904600000000
(1517155338.573166) can0 04214006#0000000000000000
(1517155338.576071) can0 04294001#010100001A000000
(1517155338.578564) can0 0A114005#E30000000200
(1517155338.581462) can0 0A014021#4000000000000002
(1517155338.596844) can0 04394000#00000054
(1517155338.600119) can0 0A014021#5000000000000002
(1517155338.617436) can0 04214001#0081904600000000
(1517155338.620333) can0 04294001#010100001A000000
(1517155338.628472) can0 06314005#0400000010000000
(1517155338.644234) can0 06314003#2010700002080000
(1517155338.667089) can0 04214001#0081904600000000
(1517155338.670000) can0 04214006#0000000000000000
(1517155338.672904) can0 04294001#010100001A000000
(1517155338.696600) can0 04394000#00000054
(1517155338.717273) can0 04214001#0081904600000000
(1517155338.720166) can0 04294001#010100001A000000
(1517155338.756930) can0 02214000#002800000000
(1517155338.759957) can0 0621401A#0005050080000000
(1517155338.766940) can0 04214001#0081904600000000
(1517155338.769872) can0 04214006#0000000000000000
(1517155338.772772) can0 04294001#010100001A000000
(1517155338.775658) can0 06214000#2900480000340B00
(1517155338.777851) can0 06254000#00000000
(1517155338.786953) can0 06314000#4000000000000000
(1517155338.796426) can0 04394000#00000054
(1517155338.817206) can0 04214001#0081904600000000
(1517155338.820101) can0 04294001#010100001A000000
(1517155338.866753) can0 04214001#0081904600000000
(1517155338.869666) can0 04214006#0000000000000000
(1517155338.872566) can0 04294001#010100001A000000
(1517155338.896281) can0 04394000#00000054
(1517155338.916894) can0 04214001#0081904600000000
(1517155338.919793) can0 04294001#010100001A000000
(1517155338.943780) can0 0C214003#215301082019
(1517155338.966592) can0 04214001#0081904600000000
(1517155338.969507) can0 04214006#0000000000000000
(1517155338.972426) can0 04294001#010100001A000000
(1517155338.996085) can0 04394000#00000054
(1517155339.006222) can0 02214000#002800000000
(1517155339.009494) can0 0621401A#0005050080000000
(1517155339.016797) can0 04214001#0081904600000000
(1517155339.019692) can0 04294001#010100001A000000
(1517155339.022571) can0 06214000#2900480000340B00
(1517155339.025874) can0 06254000#00000000
(1517155339.036887) can0 06314000#4000000000000000
(1517155339.044127) can0 0C014003#0551D75E88EC0000
(1517155339.046293) can0 063D4000#7B4C0000
(1517155339.055589) can0 06354000#0000
(1517155339.066406) can0 04214001#0081904600000000
(1517155339.069321) can0 04214006#0000000000000000
(1517155339.072219) can0 04294001#010100001A000000
(1517155339.095933) can0 04394000#00000054
(1517155339.116514) can0 04214001#0081904600000000
(1517155339.119407) can0 04294001#010100001A000000
(1517155339.128024) can0 06314005#0400000010000000
(1517155339.144224) can0 06314003#2010700002080000
(1517155339.166200) can0 04214001#0081904600000000
(1517155339.169112) can0 04214006#0000000000000000
(1517155339.172012) can0 04294001#010100001A000000
(1517155339.195677) can0 04394000#00000054
(1517155339.216384) can0 04214001#0081904600000000
(1517155339.219282) can0 04294001#010100001A000000
(1517155339.244168) can0 0C194003#0558375925081F00
(1517155339.247044) can0 06314021#0000000000000084
(1517155339.255904) can0 02214000#002800000000
(1517155339.259316) can0 0621401A#0005050080000000
(1517155339.265999) can0 04214001#0081904600000000
(1517155339.268914) can0 04214006#0000000000000000
(1517155339.271812) can0 04294001#010100001A000000
(1517155339.274697) can0 06214000#2900480000340B00
(1517155339.276891) can0 06254000#00000000
(1517155339.286014) can0 06314000#4000000000000000
(1517155339.295490) can0 04394000#00000054
(1517155339.316262) can0 04214001#0081904600000000
(1517155339.319159) can0 04294001#010100001A000000
(1517155339.344139) can0 0C114003#0558430226006640
(1517155339.365842) can0 04214001#0081904600000000
(1517155339.368795) can0 04214006#0000000000000000
(1517155339.371694) can0 04294001#010100001A000000
(1517155339.395326) can0 04394000#00000054
(1517155339.415988) can0 04214001#0081904600000000
(1517155339.418882) can0 04294001#010100001A000000
(1517155339.436607) can0 08094021#0000487800000000
(1517155339.444222) can0 0C2D4003#1D38020000000000
(1517155339.465762) can0 04214001#0081904600000000
(1517155339.468675) can0 04214006#0000000000000000
(1517155339.471575) can0 04294001#010100001A000000
(1517155339.483516) can0 0E094000#001E0400106B
(1517155339.485312) can0 0E094021#001E
(1517155339.488009) can0 0E09401A#000E
(1517155339.489790) can0 0E094003#000E
(1517155339.491607) can0 0E094005#0002
(1517155339.495112) can0 04394000#00000054
(1517155339.505438) can0 02214000#002800000000
(1517155339.509103) can0 0621401A#0005050080000000
(1517155339.515846) can0 04214001#0081904600000000
(1517155339.518741) can0 04294001#010100001A000000
(1517155339.521620) can0 06214000#2900480000340B00
(1517155339.524819) can0 06254000#00000000
(1517155339.527530) can0 0A194005#00000000000080
(1517155339.535807) can0 06314000#4000000000000000
(1517155339.538696) can0 08094021#0000487800000000
(1517155339.544215) can0 0C394003#019100920A000000
(1517155339.546380) can0 063D4000#7B4C0000
(1517155339.554614) can0 06354000#0000
(1517155339.565576) can0 02294000#0000000002000000
(1517155339.568430) can0 04214001#0081904600000000
(1517155339.571348) can0 04214006#0000000000000000
(1517155339.574268) can0 04294001#010100001A000000
(1517155339.577226) can0 0A114005#E30000000200
(1517155339.580826) can0 0A014021#4000000000000002
(1517155339.594931) can0 04394000#00000054
(1517155339.599784) can0 0A014021#5000000000000002
(1517155339.615646) can0 04214001#0081904600000000
(1517155339.618538) can0 04294001#010100001A000000
(1517155339.627574) can0 06314005#0400000010000000
(1517155339.644229) can0 06314003#2010700002080000
(1517155339.665287) can0 04214001#0081904600000000
(1517155339.668203) can0 04214006#0000000000000000
(1517155339.671101) can0 04294001#010100001A000000
(1517155339.694701) can0 04394000#00000054
(1517155339.715615) can0 04214001#0081904600000000
(1517155339.718509) can0 04294001#010100001A000000
(1517155339.754958) can0 02214000#002800000000
(1517155339.758956) can0 0621401A#0005050080000000
(1517155339.765080) can0 04214001#0081904600000000
(1517155339.768013) can0 04214006#0000000000000000
(1517155339.770912) can0 04294001#010100001A000000
(1517155339.773799) can0 06214000#2900480000340B00
(1517155339.775996) can0 06254000#00000000
(1517155339.785233) can0 06314000#4000000000000000
(1517155339.794507) can0 04394000#00000054
(1517155339.815342) can0 04214001#0081904600000000
(1517155339.818242) can0 04294001#010100001A000000
(1517155339.864877) can0 04214001#0081904600000000
(1517155339.867789) can0 04214006#0000000000000000
(1517155339.870687) can0 04294001#010100001A000000
(1517155339.894385) can0 04394000#00000054
(1517155339.915102) can0 04214001#0081904600000000
(1517155339.917995) can0 04294001#010100001A000000
(1517155339.943775) can0 0C214003#215301082019
(1517155339.964655) can0 04214001#0081904600000000
(1517155339.967610) can0 04214006#0000000000000000
(1517155339.970508) can0 04294001#010100001A000000
(1517155339.994208) can0 04394000#00000054
(1517155340.005006) can0 02214000#002800000000
(1517155340.009178) can0 0621401A#0005050080000000
(1517155340.014981) can0 04214001#0081904600000000
(1517155340.017876) can0 04294001#010100001A000000
(1517155340.020755) can0 06214000#2900480000340B00
(1517155340.023893) can0 06254000#00000000
(1517155340.035056) can0 06314000#4000000000000000
(1517155340.044131) can0 0C014003#0551D75E88EC0000
(1517155340.046295) can0 063D4000#7B4C0000
(1517155340.053728) can0 06354000#0000
(1517155340.064466) can0 04214001#0081904600000000
(1517155340.067390) can0 04214006#0000000000000000
(1517155340.070323) can0 04294001#010100001A000000
(1517155340.094044) can0 04394000#00000054
(1517155340.114756) can0 04214001#0081904600000000
(1517155340.117651) can0 04294001#010100001A000000
(1517155340.127109) can0 06314005#0400000010000000
(1517155340.144227) can0 06314003#2010700002080000
(1517155340.164278) can0 04214001#0081904600000000
(1517155340.167202) can0 04214006#0000000000000000
(1517155340.170097) can0 04294001#010100001A000000
(1517155340.193795) can0 04394000#00000054
(1517155340.214711) can0 04214001#0081904600000000
(1517155340.217606) can0 04294001#010100001A000000
(1517155340.236489) can0 08094021#0001487800000000
(1517155340.244165) can0 0C194003#0558375925081F00
(1517155340.247491) can0 06314021#0000000000000084
(1517155340.254063) can0 02214000#002800000000
(1517155340.258646) can0 0621401A#0005050080000000
(1517155340.264099) can0 04214001#0081904600000000
(1517155340.267024) can0 04214006#0000000000000000
(1517155340.269926) can0 04294001#010100001A000000
(1517155340.272839) can0 06214000#2900480000340B00
(1517155340.275044) can0 06254000#00000000
(1517155340.284196) can0 06314000#4000000000000000
(1517155340.293618) can0 04394000#00000054
(1517155340.314353) can0 04214001#0081904600000000
(1517155340.317248) can0 04294001#010100001A000000
(1517155340.344152) can0 0C114003#0558430226006640
(1517155340.363880) can0 04214001#0081904600000000
(1517155340.366809) can0 04214006#0000000000000000
(1517155340.369759) can0 04294001#010100001A000000
(1517155340.393418) can0 04394000#00000054
(1517155340.414193) can0 04214001#0081904600000000
(1517155340.417086) can0 04294001#010100001A000000
(1517155340.444232) can0 0C2D4003#1D38020000000000
(1517155340.463826) can0 04214001#0081904600000000
(1517155340.466741) can0 04214006#0000000000000000
(1517155340.469659) can0 04294001#010100001A000000
(1517155340.481715) can0 0E094000#001E0400106B
(1517155340.483534) can0 0E094021#001E
(1517155340.487638) can0 0E09401A#000E
(1517155340.489412) can0 0E094003#000E
(1517155340.491210) can0 0E094005#0002
(1517155340.493349) can0 04394000#00000054
(1517155340.504193) can0 02214000#002800000000
(1517155340.508766) can0 0621401A#0005050080000000
(1517155340.513963) can0 04214001#0081904600000000
(1517155340.516867) can0 04294001#010100001A000000
(1517155340.519742) can0 06214000#2900480000340B00
(1517155340.523021) can0 06254000#00000000
(1517155340.526563) can0 0A194005#00000000000080
(1517155340.533518) can0 08094021#0001487800000000
(1517155340.536458) can0 06314000#4000000000000000
(1517155340.542875) can0 063D4000#7B4C0000
(1517155340.545717) can0 0C394003#019100920A000000
(1517155340.552874) can0 06354000#0000
(1517155340.563632) can0 02294000#0000000002000000
(1517155340.566492) can0 04214001#0081904600000000
(1517155340.569410) can0 04214006#0000000000000000
(1517155340.572308) can0 04294001#010100001A000000
(1517155340.576430) can0 0A114005#E30000000200
(1517155340.582445) can0 0A014021#4000000000000002
(1517155340.593205) can0 04394000#00000054
(1517155340.601400) can0 0A014021#5000000000000002
(1517155340.613743) can0 04214001#0081904600000000
(1517155340.616638) can0 04294001#010100001A000000
(1517155340.626653) can0 06314005#0400000010000000
(1517155340.644236) can0 06314003#2010700002080000
(1517155340.663342) can0 04214001#0081904600000000
(1517155340.666268) can0 04214006#0000000000000000
(1517155340.669161) can0 04294001#010100001A000000
(1517155340.692899) can0 04394000#00000054
(1517155340.713554) can0 04214001#0081904600000000
(1517155340.716448) can0 04294001#010100001A000000
(1517155340.753186) can0 02214000#002800000000
(1517155340.758257) can0 0621401A#0005050080000000
(1517155340.763154) can0 04214001#0081904600000000
(1517155340.766079) can0 04214006#0000000000000000
(1517155340.768973) can0 04294001#010100001A000000
(1517155340.771911) can0 06214000#2900480000340B00
(1517155340.774112) can0 06254000#00000000
(1517155340.783250) can0 06314000#4000000000000000
(1517155340.792666) can0 04394000#00000054
(1517155340.813528) can0 04214001#0081904600000000
(1517155340.816422) can0 04294001#010100001A000000
(1517155340.862969) can0 04214001#0081904600000000
(1517155340.865967) can0 04214006#0000000000000000
(1517155340.868865) can0 04294001#010100001A000000
(1517155340.892479) can0 04394000#00000054
(1517155340.913254) can0 04214001#0081904600000000
(1517155340.916165) can0 04294001#010100001A000000
(1517155340.943760) can0 0C214003#215401082019
(1517155340.962829) can0 04214001#0081904600000000
(1517155340.965874) can0 04214006#0000000000000000
(1517155340.968768) can0 04294001#010100001A000000
(1517155340.992302) can0 04394000#00000054
(1517155341.003638) can0 02214000#002800000000
(1517155341.008560) can0 0621401A#0005050080000000
(1517155341.012973) can0 04214001#0081904600000000
(1517155341.015891) can0 04294001#010100001A000000
(1517155341.018771) can0 06214000#2900480000340B00
(1517155341.022069) can0 06254000#00000000
(1517155341.033033) can0 06314000#4000000000000000
(1517155341.041630) can0 08094021#0002487800000000
(1517155341.043794) can0 063D4000#7B4C0000
(1517155341.046554) can0 0C014003#0551D75E88EC0000
(1517155341.051948) can0 06354000#0000
(1517155341.062623) can0 04214001#0081904600000000
(1517155341.065541) can0 04214006#0000000000000000
(1517155341.068440) can0 04294001#010100001A000000
(1517155341.092097) can0 04394000#00000054
(1517155341.112770) can0 04214001#0081904600000000
(1517155341.115697) can0 04294001#010100001A000000
(1517155341.126202) can0 06314005#0400000010000000
(1517155341.144217) can0 06314003#2010700002080000
(1517155341.162438) can0 04214001#0081904600000000
(1517155341.165353) can0 04214006#0000000000000000
(1517155341.168250) can0 04294001#010100001A000000
(1517155341.191930) can0 04394000#00000054
(1517155341.212581) can0 04214001#0081904600000000
(1517155341.215480) can0 04294001#010100001A000000
(1517155341.244164) can0 0C194003#0558375925081F00
(1517155341.248960) can0 06314021#0000000000000084
(1517155341.252297) can0 02214000#002800000000
(1517155341.257952) can0 0621401A#0005050080000000
(1517155341.262252) can0 04214001#0081904600000000
(1517155341.265198) can0 04214006#0000000000000000
(1517155341.268096) can0 04294001#010100001A000000
(1517155341.270972) can0 06214000#2900480000340B00
(1517155341.273177) can0 06254000#00000000
(1517155341.282296) can0 06314000#4000000000000000
(1517155341.291711) can0 04394000#00000054
(1517155341.312527) can0 04214001#0081904600000000
(1517155341.322217) can0 04294001#010100001A000000
(1517155341.344142) can0 0C114003#0558430226006640
(1517155341.362092) can0 04214001#0081904600000000
(1517155341.365033) can0 04214006#0000000000000000
(1517155341.367931) can0 04294001#010100001A000000
(1517155341.391630) can0 04394000#00000054
(1517155341.422076) can0 04214001#0081904600000000
(1517155341.424977) can0 04294001#010100001A000000
(1517155341.444215) can0 0C2D4003#1D38020000000000
(1517155341.462024) can0 04214001#0081904600000000
(1517155341.464935) can0 04214006#0000000000000000
(1517155341.467830) can0 04294001#010100001A000000
(1517155341.479794) can0 0E094000#001E0400106B
(1517155341.481607) can0 0E094021#001E
(1517155341.483386) can0 0E094003#000E
(1517155341.487030) can0 0E09401A#000E
(1517155341.489802) can0 0E094005#0002
(1517155341.491941) can0 04394000#00000054
(1517155341.501499) can0 02214000#002800000000
(1517155341.508101) can0 0621401A#0005050080000000
(1517155341.512034) can0 06214000#2900480000340B00
(1517155341.521916) can0 04214001#0081904600000000
(1517155341.524811) can0 04294001#010100001A000000
(1517155341.527010) can0 06254000#00000000
(1517155341.529708) can0 0A194005#00000000000080
(1517155341.532647) can0 06314000#4000000000000000
(1517155341.535550) can0 08094021#0002487800000000
(1517155341.541045) can0 063D4000#7B4C0000
(1517155341.544186) can0 0C394003#019100920A000000
(1517155341.550908) can0 06354000#0000
(1517155341.561842) can0 02294000#0000000002000000
(1517155341.564700) can0 04214001#0081904600000000
(1517155341.567624) can0 04214006#0000000000000000
(1517155341.570519) can0 04294001#010100001A000000
(1517155341.575420) can0 0A114005#E30000000200
(1517155341.583095) can0 0A014021#4000000000000002
(1517155341.591176) can0 04394000#00000054
(1517155341.602115) can0 0A014021#5000000000000002
(1517155341.621589) can0 04214001#0081904600000000
(1517155341.624487) can0 04294001#010100001A000000
(1517155341.627371) can0 06314005#0400000010000000
(1517155341.644230) can0 06314003#2010700002080000
(1517155341.661650) can0 04214001#0081904600000000
(1517155341.664579) can0 04214006#0000000000000000
(1517155341.667481) can0 04294001#010100001A000000
(1517155341.690957) can0 04394000#00000054
(1517155341.721331) can0 04214001#0081904600000000
(1517155341.724223) can0 04294001#010100001A000000
(1517155341.751262) can0 02214000#002800000000
(1517155341.757601) can0 0621401A#0005050080000000
(1517155341.761312) can0 04214001#0081904600000000
(1517155341.764232) can0 04214006#0000000000000000
(1517155341.767136) can0 04294001#010100001A000000
(1517155341.770030) can0 06214000#2900480000340B00
(1517155341.772229) can0 06254000#00000000
(1517155341.781341) can0 06314000#4000000000000000
(1517155341.790771) can0 04394000#00000054
(1517155341.821145) can0 04214001#0081904600000000
(1517155341.824035) can0 04294001#010100001A000000
(1517155341.861125) can0 04214001#0081904600000000
(1517155341.864045) can0 04214006#0000000000000000
(1517155341.866969) can0 04294001#010100001A000000
(1517155341.890582) can0 04394000#00000054
(1517155341.920949) can0 04214001#0081904600000000
(1517155341.923847) can0 04294001#010100001A000000
(1517155341.943755) can0 0C214003#215401082019
(1517155341.960950) can0 04214001#0081904600000000
(1517155341.963863) can0 04214006#0000000000000000
(1517155341.966804) can0 04294001#010100001A000000
(1517155341.990402) can0 04394000#00000054
(1517155342.000493) can0 02214000#002800000000
(1517155342.007795) can0 0621401A#0005050080000000
(1517155342.011187) can0 06214000#2900480000340B00
(1517155342.020789) can0 04214001#0081904600000000
(1517155342.023684) can0 04294001#010100001A000000
(1517155342.025884) can0 06254000#00000000
(1517155342.031222) can0 06314000#4000000000000000
(1517155342.040239) can0 063D4000#7B4C0000
(1517155342.044118) can0 0C014003#0551D75E88EC0000
(1517155342.047424) can0 08094021#0003487800000000
(1517155342.049959) can0 06354000#0000
(1517155342.060881) can0 04214001#0081904600000000
(1517155342.063796) can0 04214006#0000000000000000
(1517155342.066715) can0 04294001#010100001A000000
(1517155342.090216) can0 04394000#00000054
(1517155342.120607) can0 04214001#0081904600000000
(1517155342.123499) can0 04294001#010100001A000000
(1517155342.126378) can0 06314005#0400000010000000
(1517155342.144221) can0 06314003#2010700002080000
(1517155342.160653) can0 04214001#0081904600000000
(1517155342.163571) can0 04214006#0000000000000000
(1517155342.166476) can0 04294001#010100001A000000
(1517155342.190030) can0 04394000#00000054
(1517155342.220436) can0 04214001#0081904600000000
(1517155342.223336) can0 04294001#010100001A000000
(1517155342.244161) can0 0C194003#0558375925081F00
(1517155342.250600) can0 06314021#0000000000000084
(1517155342.253135) can0 02214000#002800000000
(1517155342.257332) can0 0621401A#0005050080000000
(1517155342.260531) can0 04214001#0081904600000000
(1517155342.263451) can0 04214006#0000000000000000
(1517155342.266350) can0 04294001#010100001A000000
(1517155342.269231) can0 06214000#2900480000340B00
(1517155342.271428) can0 06254000#00000000
(1517155342.280386) can0 06314000#4000000000000000
(1517155342.289834) can0 04394000#00000054
(1517155342.320385) can0 04214001#0081904600000000
(1517155342.323276) can0 04294001#010100001A000000
(1517155342.344136) can0 0C114003#0558430226006640
(1517155342.360257) can0 04214001#0081904600000000
(1517155342.363210) can0 04214006#0000000000000000
(1517155342.366110) can0 04294001#010100001A000000
(1517155342.389668) can0 04394000#00000054
(1517155342.420082) can0 04214001#0081904600000000
(1517155342.422974) can0 04294001#010100001A000000
(1517155342.444221) can0 0C2D4003#1D38020000000000
(1517155342.460050) can0 04214001#0081904600000000
(1517155342.463010) can0 04214006#0000000000000000
(1517155342.465908) can0 04294001#010100001A000000
(1517155342.477966) can0 0E094000#001E0400106B
(1517155342.479764) can0 0E094021#001E
(1517155342.483045) can0 0E094003#000E
(1517155342.485991) can0 0E09401A#000E
(1517155342.488882) can0 0E094005#0002
(1517155342.491020) can0 04394000#00000054
(1517155342.499584) can0 02214000#002800000000
(1517155342.507054) can0 0621401A#0005050080000000
(1517155342.510532) can0 06214000#2900480000340B00
(1517155342.519890) can0 04214001#0081904600000000
(1517155342.522790) can0 04294001#010100001A000000
(1517155342.524993) can0 06254000#00000000
(1517155342.527686) can0 0A194005#00000000000080
(1517155342.530624) can0 06314000#4000000000000000
(1517155342.535889) can0 08094021#0003487800000000
(1517155342.539124) can0 063D4000#7B4C0000
(1517155342.544184) can0 0C394003#019100920A000000
(1517155342.549104) can0 06354000#0000
(1517155342.559947) can0 02294000#0000000002000000
(1517155342.562800) can0 04214001#0081904600000000
(1517155342.565725) can0 04214006#0000000000000000
(1517155342.568625) can0 04294001#010100001A000000
(1517155342.574494) can0 0A114005#E30000000200
(1517155342.584773) can0 0A014021#4000000000000002
(1517155342.589299) can0 04394000#00000054
(1517155342.603737) can0 0A014021#5000000000000002
(1517155342.619853) can0 04214001#0081904600000000
(1517155342.622746) can0 04294001#010100001A000000
(1517155342.625630) can0 06314005#0400000010000000
(1517155342.644205) can0 06314003#2010700002080000
(1517155342.659667) can0 04214001#0081904600000000
(1517155342.662578) can0 04214006#0000000000000000
(1517155342.665484) can0 04294001#010100001A000000
(1517155342.689212) can0 04394000#00000054
(1517155342.719630) can0 04214001#0081904600000000
(1517155342.722522) can0 04294001#010100001A000000
(1517155342.749461) can0 02214000#002800000000
(1517155342.757231) can0 0621401A#0005050080000000
(1517155342.760089) can0 04214001#0081904600000000
(1517155342.763088) can0 04214006#0000000000000000
(1517155342.766018) can0 04294001#010100001A000000
(1517155342.768886) can0 06214000#2900480000340B00
(1517155342.771085) can0 06254000#00000000
(1517155342.779508) can0 06314000#4000000000000000
(1517155342.788905) can0 04394000#00000054
(1517155342.819354) can0 04214001#0081904600000000
(1517155342.822252) can0 04294001#010100001A000000
(1517155342.859289) can0 04214001#0081904600000000
(1517155342.862200) can0 04214006#0000000000000000
(1517155342.865106) can0 04294001#010100001A000000
(1517155342.888734) can0 04394000#00000054
(1517155342.919232) can0 04214001#0081904600000000
(1517155342.922125) can0 04294001#010100001A000000
(1517155342.943745) can0 0C214003#215401082019
(1517155342.959106) can0 04214001#0081904600000000
(1517155342.962040) can0 04214006#0000000000000000
(1517155342.964945) can0 04294001#010100001A000000
(1517155342.988519) can0 04394000#00000054
(1517155342.998711) can0 02214000#002800000000
(1517155343.006792) can0 0621401A#0005050080000000
(1517155343.009665) can0 06214000#2900480000340B00
(1517155343.019028) can0 04214001#0081904600000000
(1517155343.021922) can0 04294001#010100001A000000
(1517155343.024120) can0 06254000#00000000
(1517155343.029305) can0 06314000#4000000000000000
(1517155343.038202) can0 063D4000#7B4C0000
(1517155343.044118) can0 0C014003#0551D75E88EC0000
(1517155343.048201) can0 06354000#0000
(1517155343.058914) can0 04214001#0081904600000000
(1517155343.061832) can0 04214006#0000000000000000
(1517155343.064732) can0 04294001#010100001A000000
(1517155343.074597) can0 08094021#0004487800000000
(1517155343.088353) can0 04394000#00000054
(1517155343.118900) can0 04214001#0081904600000000
(1517155343.121799) can0 04294001#010100001A000000
(1517155343.124676) can0 06314005#0400000010000000
(1517155343.144223) can0 06314003#2010700002080000
(1517155343.158718) can0 04214001#0081904600000000
(1517155343.161631) can0 04214006#0000000000000000
(1517155343.164531) can0 04294001#010100001A000000
(1517155343.188190) can0 04394000#00000054
(1517155343.218702) can0 04214001#0081904600000000
(1517155343.221595) can0 04294001#010100001A000000
(1517155343.244155) can0 0C194003#0558375925081F00
(1517155343.248459) can0 02214000#002800000000
(1517155343.251334) can0 06314021#0000000000000084
(1517155343.256975) can0 0621401A#0005050080000000
(1517155343.259828) can0 04214001#0081904600000000
(1517155343.262747) can0 04214006#0000000000000000
(1517155343.265652) can0 04294001#010100001A000000
(1517155343.268526) can0 06214000#2900480000340B00
(1517155343.270725) can0 06254000#00000000
(1517155343.278548) can0 06314000#4000000000000000
(1517155343.288045) can0 04394000#00000054
(1517155343.318418) can0 04214001#0081904600000000
(1517155343.321311) can0 04294001#010100001A000000
(1517155343.344137) can0 0C114003#0558430226006640
(1517155343.358536) can0 04214001#0081904600000000
(1517155343.361447) can0 04214006#0000000000000000
(1517155343.364344) can0 04294001#010100001A000000
(1517155343.387807) can0 04394000#00000054
(1517155343.418332) can0 04214001#0081904600000000
(1517155343.421230) can0 04294001#010100001A000000
(1517155343.444217) can0 0C2D4003#1D38020000000000
(1517155343.458480) can0 04214001#0081904600000000
(1517155343.461386) can0 04214006#0000000000000000
(1517155343.464285) can0 04294001#010100001A000000
(1517155343.476001) can0 0E094000#001E0400106B
(1517155343.477840) can0 0E094021#001E
(1517155343.479620) can0 0E094003#000E
(1517155343.481417) can0 0E094005#0002
(1517155343.485702) can0 0E09401A#000E
(1517155343.487836) can0 04394000#00000054
(1517155343.497700) can0 02214000#002800000000
(1517155343.506713) can0 0621401A#0005050080000000
(1517155343.509586) can0 06214000#2900480000340B00
(1517155343.518210) can0 04214001#0081904600000000
(1517155343.521103) can0 04294001#010100001A000000
(1517155343.523303) can0 06254000#00000000
(1517155343.526006) can0 0A194005#00000000000080
(1517155343.528940) can0 06314000#4000000000000000
(1517155343.536339) can0 08094021#0004487800000000
(1517155343.538498) can0 063D4000#7B4C0000
(1517155343.544179) can0 0C394003#019100920A000000
(1517155343.547223) can0 06354000#0000
(1517155343.558500) can0 02294000#0000000002000000
(1517155343.561355) can0 04214001#0081904600000000
(1517155343.564274) can0 04214006#0000000000000000
(1517155343.567177) can0 04294001#010100001A000000
(1517155343.573588) can0 0A114005#E30000000200
(1517155343.585530) can0 0A014021#4000000000000002
(1517155343.587667) can0 04394000#00000054
(1517155343.604388) can0 0A014021#5000000000000002
(1517155343.617947) can0 04214001#0081904600000000
(1517155343.620844) can0 04294001#010100001A000000
(1517155343.623920) can0 06314005#0400000010000000
(1517155343.644208) can0 06314003#2010700002080000
(1517155343.658137) can0 04214001#0081904600000000
(1517155343.668040) can0 04214006#0000000000000000
(1517155343.670933) can0 04294001#010100001A000000
(1517155343.687294) can0 04394000#00000054
(1517155343.717681) can0 04214001#0081904600000000
(1517155343.720579) can0 04294001#010100001A000000
(1517155343.747578) can0 02214000#002800000000
(1517155343.756610) can0 0621401A#0005050080000000
(1517155343.759486) can0 06214000#2900480000340B00
(1517155343.767848) can0 04214001#0081904600000000
(1517155343.770768) can0 04214006#0000000000000000
(1517155343.773663) can0 04294001#010100001A000000
(1517155343.775861) can0 06254000#00000000
(1517155343.778800) can0 06314000#4000000000000000
(1517155343.787064) can0 04394000#00000054
(1517155343.817477) can0 04214001#0081904600000000
(1517155343.820370) can0 04294001#010100001A000000
(1517155343.867610) can0 04214001#0081904600000000
(1517155343.870519) can0 04214006#0000000000000000
(1517155343.873416) can0 04294001#010100001A000000
(1517155343.887019) can0 04394000#00000054
(1517155343.917251) can0 04214001#0081904600000000
(1517155343.920145) can0 04294001#010100001A000000
(1517155343.943745) can0 0C214003#215401082019
(1517155343.967404) can0 04214001#0081904600000000
(1517155343.970318) can0 04214006#0000000000000000
(1517155343.973218) can0 04294001#010100001A000000
(1517155343.986680) can0 04394000#00000054
(1517155343.996776) can0 02214000#002800000000
(1517155344.006450) can0 0621401A#0005050080000000
(1517155344.009324) can0 06214000#2900480000340B00
(1517155344.017063) can0 04214001#0081904600000000
(1517155344.019962) can0 04294001#010100001A000000
(1517155344.022162) can0 06254000#00000000
(1517155344.027426) can0 06314000#4000000000000000
(1517155344.036322) can0 063D4000#7B4C0000
(1517155344.044098) can0 0C014003#0551D75E88EC0000
(1517155344.046302) can0 06354000#0000
(1517155344.067218) can0 04214001#0081904600000000
(1517155344.070131) can0 04214006#0000000000000000
(1517155344.073029) can0 04294001#010100001A000000
(1517155344.086593) can0 04394000#00000054
(1517155344.116863) can0 04214001#0081904600000000
(1517155344.119802) can0 04294001#010100001A000000
(1517155344.123476) can0 06314005#0400000010000000
(1517155344.129615) can0 08094021#0005487800000000
(1517155344.144195) can0 06314003#2010700002080000
(1517155344.167015) can0 04214001#0081904600000000
(1517155344.169970) can0 04214006#0000000000000000
(1517155344.172868) can0 04294001#010100001A000000
(1517155344.186304) can0 04394000#00000054
(1517155344.216704) can0 04214001#0081904600000000
(1517155344.219616) can0 04294001#010100001A000000
(1517155344.244136) can0 0C194003#0558375925081F00
(1517155344.246675) can0 02214000#002800000000
(1517155344.251836) can0 06314021#0000000000000084
(1517155344.255932) can0 0621401A#0005050080000000
(1517155344.258811) can0 06214000#2900480000340B00
(1517155344.266957) can0 04214001#0081904600000000
(1517155344.269870) can0 04214006#0000000000000000
(1517155344.272768) can0 04294001#010100001A000000
(1517155344.275014) can0 06254000#00000000
(1517155344.277948) can0 06314000#4000000000000000
(1517155344.286189) can0 04394000#00000054
(1517155344.316501) can0 04214001#0081904600000000
(1517155344.319396) can0 04294001#010100001A000000
(1517155344.344124) can0 0C114003#0558430226006640
(1517155344.366673) can0 04214001#0081904600000000
(1517155344.369589) can0 04214006#0000000000000000
(1517155344.372488) can0 04294001#010100001A000000
(1517155344.385928) can0 04394000#00000054
(1517155344.416386) can0 04214001#0081904600000000
(1517155344.419318) can0 04294001#010100001A000000
(1517155344.444195) can0 0C2D4003#1D38020000000000
(1517155344.466557) can0 04214001#0081904600000000
(1517155344.469469) can0 04214006#0000000000000000
(1517155344.472368) can0 04294001#010100001A000000
(1517155344.474932) can0 0E094000#001E0400106B
(1517155344.476807) can0 0E094021#001E
(1517155344.478587) can0 0E094003#000E
(1517155344.480385) can0 0E094005#0002
(1517155344.484948) can0 0E09401A#000E
(1517155344.487081) can0 04394000#00000054
(1517155344.495920) can0 02214000#002800000000
(1517155344.505758) can0 0621401A#0005050080000000
(1517155344.508631) can0 06214000#2900480000340B00
(1517155344.516095) can0 04214001#0081904600000000
(1517155344.519009) can0 04294001#010100001A000000
(1517155344.521208) can0 06254000#00000000
(1517155344.523905) can0 0A194005#00000000000080
(1517155344.526851) can0 06314000#4000000000000000
(1517155344.535467) can0 063D4000#7B4C0000
(1517155344.538343) can0 08094021#0005487800000000
(1517155344.544183) can0 0C394003#019100920A000000
(1517155344.545963) can0 06354000#0000
(1517155344.556180) can0 02294000#0000000002000000
(1517155344.566323) can0 04214001#0081904600000000
(1517155344.569242) can0 04214006#0000000000000000
(1517155344.572137) can0 04294001#010100001A000000
(1517155344.574633) can0 0A114005#E30000000200
(1517155344.586176) can0 0A014021#4000000000000002
(1517155344.588313) can0 04394000#00000054
(1517155344.605101) can0 0A014021#5000000000000002
(1517155344.615911) can0 04214001#0081904600000000
(1517155344.618810) can0 04294001#010100001A000000
(1517155344.623007) can0 06314005#0400000010000000
(1517155344.644219) can0 06314003#2010700002080000
(1517155344.666290) can0 04214001#0081904600000000
(1517155344.669202) can0 04214006#0000000000000000
(1517155344.672101) can0 04294001#010100001A000000
(1517155344.685362) can0 04394000#00000054
(1517155344.715855) can0 04214001#0081904600000000
(1517155344.718749) can0 04294001#010100001A000000
(1517155344.745607) can0 02214000#002800000000
(1517155344.755559) can0 0621401A#0005050080000000
(1517155344.758433) can0 06214000#2900480000340B00
(1517155344.766156) can0 04214001#0081904600000000
(1517155344.769071) can0 04214006#0000000000000000
(1517155344.771991) can0 04294001#010100001A000000
(1517155344.774189) can0 06254000#00000000
(1517155344.777135) can0 06314000#4000000000000000
(1517155344.785313) can0 04394000#00000054
(1517155344.815565) can0 04214001#0081904600000000
(1517155344.818459) can0 04294001#010100001A000000
(1517155344.866031) can0 04214001#0081904600000000
(1517155344.868968) can0 04214006#0000000000000000
(1517155344.871906) can0 04294001#010100001A000000
(1517155344.884970) can0 04394000#00000054
(1517155344.915474) can0 04214001#0081904600000000
(1517155344.918372) can0 04294001#010100001A000000
(1517155344.943739) can0 0C214003#215401082019
(1517155344.965812) can0 04214001#0081904600000000
(1517155344.968726) can0 04214006#0000000000000000
(1517155344.971645) can0 04294001#010100001A000000
(1517155344.984781) can0 04394000#00000054
(1517155344.994906) can0 02214000#002800000000
(1517155345.005403) can0 0621401A#0005050080000000
(1517155345.008273) can0 06214000#2900480000340B00
(1517155345.015256) can0 04214001#0081904600000000
(1517155345.018150) can0 04294001#010100001A000000
(1517155345.020348) can0 06254000#00000000
(1517155345.025653) can0 06314000#4000000000000000
(1517155345.034584) can0 063D4000#7B4C0000
(1517155345.044105) can0 0C014003#0551D75E88EC0000
(1517155345.045891) can0 06354000#0000
(1517155345.065944) can0 04214001#0081904600000000
(1517155345.068859) can0 04214006#0000000000000000
(1517155345.071758) can0 04294001#010100001A000000
(1517155345.084639) can0 04394000#00000054
(1517155345.115152) can0 04214001#0081904600000000
(1517155345.118045) can0 04294001#010100001A000000
(1517155345.122560) can0 06314005#0400000010000000
(1517155345.144207) can0 06314003#2010700002080000
(1517155345.158521) can0 08094021#0006487800000000
(1517155345.165623) can0 04214001#0081904600000000
(1517155345.168598) can0 04214006#0000000000000000
(1517155345.171496) can0 04294001#010100001A000000
(1517155345.184557) can0 04394000#00000054
(1517155345.214945) can0 04214001#0081904600000000
(1517155345.217844) can0 04294001#010100001A000000
(1517155345.244156) can0 0C194003#0558375925081F00
(1517155345.246686) can0 02214000#002800000000
(1517155345.252484) can0 06314021#0000000000000084
(1517155345.255367) can0 06214000#2900480000340B00
(1517155345.258261) can0 0621401A#0005050080000000
(1517155345.265524) can0 04214001#0081904600000000
(1517155345.268438) can0 04214006#0000000000000000
(1517155345.271338) can0 04294001#010100001A000000
(1517155345.273577) can0 06254000#00000000
(1517155345.276516) can0 06314000#4000000000000000
(1517155345.284434) can0 04394000#00000054
(1517155345.314673) can0 04214001#0081904600000000
(1517155345.317589) can0 04294001#010100001A000000
(1517155345.344106) can0 0C114003#0558430226006640
(1517155345.365387) can0 04214001#0081904600000000
(1517155345.368301) can0 04214006#0000000000000000
(1517155345.371200) can0 04294001#010100001A000000
(1517155345.384101) can0 04394000#00000054
(1517155345.414634) can0 04214001#0081904600000000
(1517155345.417527) can0 04294001#010100001A000000
(1517155345.444199) can0 0C2D4003#1D38020000000000
(1517155345.465275) can0 04214001#0081904600000000
(1517155345.468184) can0 04214006#0000000000000000
(1517155345.471081) can0 04294001#010100001A000000
(1517155345.473641) can0 0E094000#001E0400106B
(1517155345.475426) can0 0E094021#001E
(1517155345.477219) can0 0E094005#0002
(1517155345.478998) can0 0E094003#000E
(1517155345.483977) can0 04394000#00000054
(1517155345.485741) can0 0E09401A#000E
(1517155345.493975) can0 02214000#002800000000
(1517155345.504715) can0 06214000#2900480000340B00
(1517155345.507611) can0 0621401A#0005050080000000
(1517155345.514288) can0 04214001#0081904600000000
(1517155345.517188) can0 04294001#010100001A000000
(1517155345.519387) can0 06254000#00000000
(1517155345.522084) can0 0A194005#00000000000080
(1517155345.525030) can0 06314000#4000000000000000
(1517155345.533521) can0 063D4000#7B4C0000
(1517155345.537627) can0 08094021#0006487800000000
(1517155345.544182) can0 0C394003#019100920A000000
(1517155345.545965) can0 06354000#0000
(1517155345.554420) can0 02294000#0000000002000000
(1517155345.565062) can0 04214001#0081904600000000
(1517155345.567976) can0 04214006#0000000000000000
(1517155345.570873) can0 04294001#010100001A000000
(1517155345.573372) can0 0A114005#E30000000200
(1517155345.583749) can0 04394000#00000054
(1517155345.587052) can0 0A014021#4000000000000002
(1517155345.605735) can0 0A014021#5000000000000002
(1517155345.614207) can0 04214001#0081904600000000
(1517155345.617113) can0 04294001#010100001A000000
(1517155345.622103) can0 06314005#0400000010000000
(1517155345.644203) can0 06314003#2010700002080000
(1517155345.665167) can0 04214001#0081904600000000
(1517155345.668078) can0 04214006#0000000000000000
(1517155345.670975) can0 04294001#010100001A000000
(1517155345.683458) can0 04394000#00000054
(1517155345.713930) can0 04214001#0081904600000000
(1517155345.716832) can0 04294001#010100001A000000
(1517155345.743907) can0 02214000#002800000000
(1517155345.753980) can0 06214000#2900480000340B00
(1517155345.756873) can0 0621401A#0005050080000000
(1517155345.764790) can0 04214001#0081904600000000
(1517155345.767710) can0 04214006#0000000000000000
(1517155345.770648) can0 04294001#010100001A000000
(1517155345.772848) can0 06254000#00000000
(1517155345.775813) can0 06314000#4000000000000000
(1517155345.783326) can0 04394000#00000054
(1517155345.813702) can0 04214001#0081904600000000
(1517155345.816597) can0 04294001#010100001A000000
(1517155345.864869) can0 04214001#0081904600000000
(1517155345.867782) can0 04214006#0000000000000000
(1517155345.870682) can0 04294001#010100001A000000
(1517155345.883097) can0 04394000#00000054
(1517155345.913537) can0 04214001#0081904600000000
(1517155345.916437) can0 04294001#010100001A000000
(1517155345.943729) can0 0C214003#215401082019
(1517155345.964590) can0 04214001#0081904600000000
(1517155345.967503) can0 04214006#0000000000000000
(1517155345.970401) can0 04294001#010100001A000000
(1517155345.982902) can0 04394000#00000054
(1517155345.993100) can0 02214000#002800000000
(1517155346.003633) can0 06214000#2900480000340B00
(1517155346.006539) can0 0621401A#0005050080000000
(1517155346.013330) can0 04214001#0081904600000000
(1517155346.016234) can0 04294001#010100001A000000
(1517155346.018429) can0 06254000#00000000
(1517155346.023708) can0 06314000#4000000000000000
(1517155346.032589) can0 063D4000#7B4C0000
(1517155346.042606) can0 06354000#0000
(1517155346.045363) can0 0C014003#0551D75E88EC0000
