(1517155179.443767) can0 0E094000#001C00000001
(1517155179.500360) can0 0E094000#001E00000001
(1517155179.503311) can0 0E094021#003A
(1517155179.505086) can0 0E094003#000A
(1517155179.506883) can0 0E094005#0002
(1517155179.511988) can0 08094021#0000000000000000
(1517155179.514165) can0 04394000#00000000
(1517155179.518020) can0 0E09401A#000C
(1517155179.520964) can0 0621401A#A000000080000000
(1517155179.523821) can0 02214000#000000000000
(1517155179.532096) can0 0A194005#00000000000080
(1517155179.534951) can0 06214000#2100480000000F00
(1517155179.543395) can0 06254000#00000000
(1517155179.553834) can0 04214006#0000000000000000
(1517155179.556769) can0 06314000#4000000000000000
(1517155179.561734) can0 0A014021#4000000000000002
(1517155179.564568) can0 04214001#0001913C00000000
(1517155179.567469) can0 04294001#0101000045000000
(1517155179.569587) can0 063D4000#7B4F0000
(1517155179.572591) can0 06354000#0000
(1517155179.580732) can0 0A014021#5000000000000002
(1517155179.583270) can0 0A114005#000000000800
(1517155179.586227) can0 02294000#0000000002000000
(1517155179.604580) can0 0C194003#055839684409A300
(1517155179.613633) can0 04214001#0001913C00000000
(1517155179.616526) can0 04294001#0101000045000000
(1517155179.618702) can0 04394000#00000000
(1517155179.629202) can0 0621401A#0000000080000000
(1517155179.632277) can0 06314005#0000000000000000
(1517155179.653619) can0 04214006#0000000000000000
(1517155179.663755) can0 04214001#0001913C00000000
(1517155179.666649) can0 04294001#0101000045000000
(1517155179.704620) can0 0C114003#05583D0042001B90
(1517155179.713355) can0 04214001#0001913C00000000
(1517155179.716267) can0 04294001#0101000045000000
(1517155179.718446) can0 04394000#00000000
(1517155179.753631) can0 04214006#0000000000000000
(1517155179.763574) can0 04214001#0001913C00000000
(1517155179.766462) can0 04294001#0101000045000000
(1517155179.769358) can0 0621401A#0000000080000000
(1517155179.772964) can0 02214000#000000000000
(1517155179.783583) can0 06214000#2100480000000F00
(1517155179.792700) can0 06254000#00000000
(1517155179.803695) can0 06314000#4000000000000000
(1517155179.806581) can0 0C2D4003#1C01820000000000
(1517155179.809457) can0 0A394021#0028000000000000
(1517155179.813198) can0 04214001#0001913C00000000
(1517155179.816094) can0 04294001#0101000045000000
(1517155179.818272) can0 04394000#00000000
(1517155179.819869) can0 08194003#C0
(1517155179.829439) can0 06314003#A2107000A0080000
(1517155179.853414) can0 04214006#0000000000000000
(1517155179.863490) can0 04214001#0001913C00000000
(1517155179.866386) can0 04294001#0101000045000000
(1517155179.902819) can0 06314021#0000000000000080
(1517155179.905649) can0 0C394003#019100920A000000
(1517155179.913012) can0 04214001#0001913C00000000
(1517155179.915924) can0 04294001#0101000045000000
(1517155179.918103) can0 04394000#00000000
(1517155179.953230) can0 04214006#0000000000000000
(1517155179.963224) can0 04214001#0001913C00000000
(1517155179.966118) can0 04294001#0101000045000000
(1517155180.004503) can0 06314003#A2107000A0080000
(1517155180.012846) can0 04214001#0001913C00000000
(1517155180.015741) can0 04294001#0101000045000000
(1517155180.017915) can0 04394000#00000000
(1517155180.020821) can0 0621401A#0000000080000000
(1517155180.023352) can0 02214000#000000000000
(1517155180.032875) can0 06214000#2100480000000F00
(1517155180.043234) can0 06214000#2100480000000B00
(1517155180.045428) can0 06254000#00000000
(1517155180.053092) can0 06314000#4000000000000000
(1517155180.063055) can0 04214001#0001913C00000000
(1517155180.065967) can0 04214006#0000000000000000
(1517155180.068887) can0 04294001#0101000045000000
(1517155180.071012) can0 063D4000#7B4E0000
(1517155180.072805) can0 06354000#0000
(1517155180.112684) can0 04214001#0001913C00000000
(1517155180.115602) can0 04294001#0101000045000000
(1517155180.117779) can0 04394000#00000000
(1517155180.131082) can0 06314005#0400000000000000
(1517155180.133984) can0 06314005#0400000000000000
(1517155180.135902) can0 0A094005#00B2A8
(1517155180.142007) can0 0A114000#00E381
(1517155180.162904) can0 04214001#0001913C00000000
(1517155180.165821) can0 04214006#0000000000000000
(1517155180.168760) can0 04294001#0101000045000000
(1517155180.212645) can0 04214001#0001913C00000000
(1517155180.215537) can0 04294001#0101000045000000
(1517155180.217712) can0 04394000#00000000
(1517155180.228178) can0 06314021#0000000000000080
(1517155180.231035) can0 0621401A#0005010080000000
(1517155180.262816) can0 04214001#0001913C00000000
(1517155180.265724) can0 04214006#0000000000000000
(1517155180.268643) can0 04294001#0101000045000000
(1517155180.271508) can0 0621401A#0005010080000000
(1517155180.274046) can0 02214000#000000000000
(1517155180.282727) can0 06214000#2100480000000B00
(1517155180.292083) can0 06254000#00000000
(1517155180.302966) can0 06314000#4000000000000000
(1517155180.305418) can0 0C214003#090408082019
(1517155180.312362) can0 04214001#0001913C00000000
(1517155180.315256) can0 04294001#0101000045000000
(1517155180.317454) can0 04394000#00000000
(1517155180.324560) can0 06314003#A2107000A2080000
(1517155180.362620) can0 04214001#0001913C00000000
(1517155180.365533) can0 04214006#0000000000000000
(1517155180.368431) can0 04294001#0101000045000000
(1517155180.371336) can0 0A014021#4000000000000002
(1517155180.390235) can0 0A014021#5000000000000002
(1517155180.404436) can0 0C014003#0551D9CB88760000
(1517155180.412192) can0 04214001#0081913C00000000
(1517155180.415128) can0 04294001#0101000045000000
(1517155180.417327) can0 04394000#00000000
(1517155180.462388) can0 04214001#0081913C00000000
(1517155180.465363) can0 04214006#0000000000000000
(1517155180.468262) can0 04294001#0101000045000000
(1517155180.471065) can0 0C3D4000#47D6
(1517155180.482510) can0 1E114000#
(1517155180.488377) can0 1E11401A#362630045880
(1517155180.490784) can0 1E114003#362630045880
(1517155180.498576) can0 0E094000#001E0400106B
(1517155180.500434) can0 0E094021#001E
(1517155180.503456) can0 0E094003#000E
(1517155180.506294) can0 06314003#A2107000A2080000
(1517155180.508073) can0 0E094005#0006
(1517155180.509832) can0 0E09401A#000E
(1517155180.512698) can0 04214001#0081913C00000000
(1517155180.515612) can0 08094021#0000000000000000
(1517155180.518512) can0 04294001#0101000045000000
(1517155180.520695) can0 04394000#00000000
(1517155180.523550) can0 0621401A#0005010080000000
(1517155180.526089) can0 02214000#000000000000
(1517155180.531249) can0 0A194005#00000000000080
(1517155180.534148) can0 06214000#2100480000000B00
(1517155180.541732) can0 06254000#00000000
(1517155180.552048) can0 06314000#4000000000000000
(1517155180.562206) can0 04214001#0081913C00000000
(1517155180.565121) can0 04214006#0000000000000000
(1517155180.568021) can0 04294001#0101000045000000
(1517155180.570926) can0 0A014021#4000000000000002
(1517155180.573042) can0 063D4000#7B4E0000
(1517155180.574839) can0 06354000#0000
(1517155180.581041) can0 0A114005#000000000800
(1517155180.583994) can0 02294000#0000000002000000
(1517155180.589354) can0 0A014021#5000000000000002
(1517155180.604466) can0 0C194003#055839684409A300
(1517155180.611899) can0 04214001#0081913C00000000
(1517155180.614793) can0 04294001#0101000045000000
(1517155180.616972) can0 04394000#00000000
(1517155180.631385) can0 06314005#0400000000000000
(1517155180.661330) can0 1E114021#362630045880
(1517155180.664178) can0 04214001#0081913C00000000
(1517155180.667096) can0 04214006#0000000000000000
(1517155180.670036) can0 04294001#0101000045000000
(1517155180.704513) can0 0C114003#05583D0042001B90
(1517155180.711660) can0 04214001#0081913C00000000
(1517155180.714575) can0 04294001#0101000045000000
(1517155180.716754) can0 04394000#00000000
(1517155180.761815) can0 04214001#0081913C00000000
(1517155180.764728) can0 04214006#0000000000000000
(1517155180.767626) can0 04294001#0101000045000000
(1517155180.770483) can0 0621401A#0005010080000000
(1517155180.773031) can0 02214000#000000000000
(1517155180.781868) can0 06214000#2100480000000B00
(1517155180.791811) can0 06254000#00000000
(1517155180.801947) can0 06314000#4000000000000000
(1517155180.804822) can0 0C2D4003#1C01820000000000
(1517155180.811526) can0 04214001#0081913C00000000
(1517155180.814419) can0 04294001#0101000045000000
(1517155180.816600) can0 04394000#00000000
(1517155180.861670) can0 04214001#0081913C00000000
(1517155180.864576) can0 04214006#0000000000000000
(1517155180.867472) can0 04294001#0101000045000000
(1517155180.904523) can0 0C394003#019100920A000000
(1517155180.911357) can0 04214001#0081913C00000000
(1517155180.914249) can0 04294001#0101000045000000
(1517155180.916429) can0 04394000#00000000
(1517155180.961475) can0 04214001#0081913C00000000
(1517155180.964385) can0 04214006#0000000000000000
(1517155180.967284) can0 04294001#0101000045000000
(1517155181.004490) can0 06314003#A2107000A2080000
(1517155181.011212) can0 04214001#0081913C00000000
(1517155181.014103) can0 04294001#0101000045000000
(1517155181.016281) can0 04394000#00000000
(1517155181.019140) can0 0621401A#0005010080000000
(1517155181.021685) can0 02214000#000000000000
(1517155181.031162) can0 06214000#2100480000000B00
(1517155181.040721) can0 06254000#00000000
(1517155181.051241) can0 06314000#4000000000000000
(1517155181.061344) can0 04214001#0081913C00000000
(1517155181.064255) can0 04214006#0000000000000000
(1517155181.067153) can0 04294001#0101000045000000
(1517155181.069303) can0 063D4000#7B4D0000
(1517155181.071096) can0 06354000#0000
(1517155181.111115) can0 04214001#0081913C00000000
(1517155181.113991) can0 04294001#0101000045000000
(1517155181.116169) can0 04394000#00000000
(1517155181.120677) can0 0A394021#0028000000000000
(1517155181.123327) can0 08194003#C0
(1517155181.130964) can0 06314005#0400000000000000
(1517155181.161146) can0 04214001#0081913C00000000
(1517155181.164136) can0 04214006#0000000000000000
(1517155181.167056) can0 04294001#0101000045000000
(1517155181.185127) can0 0A114005#420415000000
(1517155181.187657) can0 0A194005#A2151D49466800
(1517155181.210866) can0 04214001#0081913C00000000
(1517155181.213757) can0 04294001#0101000045000000
(1517155181.215933) can0 04394000#00000000
(1517155181.228839) can0 06314021#0000000000000080
(1517155181.260980) can0 04214001#0081913C00000000
(1517155181.263890) can0 04214006#0000000000000000
(1517155181.266787) can0 04294001#0101000045000000
(1517155181.269651) can0 0621401A#0005010080000000
(1517155181.272195) can0 02214000#000000000000
(1517155181.281058) can0 06214000#2100480000000B00
(1517155181.290951) can0 06254000#00000000
(1517155181.301027) can0 06314000#4000000000000000
(1517155181.304121) can0 0C214003#090408082019
(1517155181.310703) can0 04214001#0081913C00000000
(1517155181.313604) can0 04294001#0101000045000000
(1517155181.315780) can0 04394000#00000000
(1517155181.360801) can0 04214001#0081913C00000000
(1517155181.363714) can0 04214006#0000000000000000
(1517155181.366614) can0 04294001#0101000045000000
(1517155181.404445) can0 0C014003#0551D9CB88760000
(1517155181.410493) can0 04214001#0081913C00000000
(1517155181.413393) can0 04294001#0101000045000000
(1517155181.415572) can0 04394000#00000000
(1517155181.460634) can0 04214001#0081913C00000000
(1517155181.463547) can0 04214006#0000000000000000
(1517155181.466444) can0 04294001#0101000045000000
(1517155181.469283) can0 0C3D4000#47D6
(1517155181.496785) can0 0E094000#001E0400106B
(1517155181.498641) can0 0E094021#001E
(1517155181.503443) can0 0E094003#000E
(1517155181.505218) can0 0E094005#0006
(1517155181.508037) can0 06314003#A2107000A2080000
(1517155181.510904) can0 04214001#0081913C00000000
(1517155181.513798) can0 04294001#0101000045000000
(1517155181.516717) can0 08094021#0000000000000000
(1517155181.518896) can0 04394000#00000000
(1517155181.520660) can0 0E09401A#000E
(1517155181.523196) can0 02214000#000000000000
(1517155181.526054) can0 0621401A#0005010080000000
(1517155181.530232) can0 06214000#21004800001C0B00
(1517155181.532777) can0 0A194005#A2151D49466800
(1517155181.539888) can0 06254000#00000000
(1517155181.550312) can0 06314000#4000000000000000
(1517155181.560449) can0 04214001#0081913C00000000
(1517155181.563348) can0 0A014021#4000000000000002
(1517155181.566266) can0 04214006#0000000000000000
(1517155181.569165) can0 04294001#0101000045000000
(1517155181.570971) can0 06354000#0000
(1517155181.573206) can0 063D4000#7B4D0000
(1517155181.580543) can0 02294000#0000000002000000
(1517155181.583422) can0 0A014021#5000000000000002
(1517155181.585879) can0 0A114005#420415000000
(1517155181.604445) can0 0C194003#055839684409A300
(1517155181.610200) can0 04214001#0081913C00000000
(1517155181.613103) can0 04294001#0101000045000000
(1517155181.615280) can0 04394000#00000000
(1517155181.630534) can0 06314005#0400000000000000
(1517155181.660309) can0 04214001#0081913C00000000
(1517155181.663225) can0 04214006#0000000000000000
(1517155181.666123) can0 04294001#0101000045000000
(1517155181.704491) can0 0C114003#05583D0042001B90
(1517155181.709983) can0 04214001#0081913C00000000
(1517155181.712889) can0 04294001#0101000045000000
(1517155181.715080) can0 04394000#00000000
(1517155181.760144) can0 04214001#0081913C00000000
(1517155181.763057) can0 04214006#0000000000000000
(1517155181.765954) can0 04294001#0101000045000000
(1517155181.768811) can0 0621401A#0005010080000000
(1517155181.771355) can0 02214000#000000000000
(1517155181.780050) can0 06214000#21004800001C0B00
(1517155181.790253) can0 06254000#00000000
(1517155181.800111) can0 06314000#4000000000000000
(1517155181.804556) can0 0C2D4003#1C01820000000000
(1517155181.809848) can0 04214001#0081913C00000000
(1517155181.812752) can0 04294001#0101000045000000
(1517155181.814923) can0 04394000#00000000
(1517155181.859962) can0 04214001#0081913C00000000
(1517155181.862886) can0 04214006#0000000000000000
(1517155181.865783) can0 04294001#0101000045000000
(1517155181.904500) can0 0C394003#019100920A000000
(1517155181.909597) can0 04214001#0081913C00000000
(1517155181.912501) can0 04294001#0101000045000000
(1517155181.914677) can0 04394000#00000000
(1517155181.959937) can0 04214001#0081913C00000000
(1517155181.962850) can0 04214006#0000000000000000
(1517155181.965769) can0 04294001#0101000045000000
(1517155182.004478) can0 06314003#A2107000A2080000
(1517155182.009450) can0 04214001#0081913C00000000
(1517155182.012356) can0 04294001#0101000045000000
(1517155182.014526) can0 04394000#00000000
(1517155182.017884) can0 0621401A#0005010080000000
(1517155182.020424) can0 02214000#000000000000
(1517155182.029509) can0 06214000#21004800001C0B00
(1517155182.038985) can0 06254000#00000000
(1517155182.049408) can0 06314000#4000000000000000
(1517155182.059685) can0 04214001#0081913C00000000
(1517155182.062639) can0 04214006#0000000000000000
(1517155182.065557) can0 04294001#0101000045000000
(1517155182.067717) can0 063D4000#7B4C0000
(1517155182.069517) can0 06354000#0000
(1517155182.109302) can0 04214001#0081913D00000000
(1517155182.112196) can0 04294001#0101000045000000
(1517155182.114373) can0 04394000#00000000
(1517155182.130104) can0 06314005#0400000000000000
(1517155182.159649) can0 04214001#0081913D00000000
(1517155182.162557) can0 04214006#0000000000000000
(1517155182.165473) can0 04294001#0101000045000000
(1517155182.209076) can0 04214001#0081913D00000000
(1517155182.211986) can0 04294001#0101000045000000
(1517155182.214202) can0 04394000#00000000
(1517155182.229500) can0 06314021#0000000000000080
(1517155182.259320) can0 04214001#0081913D00000000
(1517155182.262234) can0 04214006#0000000000000000
(1517155182.265131) can0 04294001#0101000045000000
(1517155182.267987) can0 0621401A#0005010080000000
(1517155182.270525) can0 02214000#000000000000
(1517155182.279147) can0 06214000#21004800001C0B00
(1517155182.288405) can0 06254000#00000000
(1517155182.299284) can0 06314000#4000000000000000
(1517155182.304104) can0 0C214003#090408082019
(1517155182.308982) can0 04214001#0081913D00000000
(1517155182.311902) can0 04294001#0101000045000000
(1517155182.314081) can0 04394000#00000000
(1517155182.359271) can0 04214001#0081913D00000000
(1517155182.362193) can0 04214006#0000000000000000
(1517155182.365106) can0 04294001#0101000045000000
(1517155182.372271) can0 0A394021#0028000000000000
(1517155182.378183) can0 08194003#C0
(1517155182.404406) can0 0C014003#0551D9CB88760000
(1517155182.408728) can0 04214001#0081913D00000000
(1517155182.411625) can0 04294001#0101000045000000
(1517155182.413805) can0 04394000#00000000
(1517155182.459080) can0 04214001#0081913D00000000
(1517155182.461998) can0 04214006#0000000000000000
(1517155182.464917) can0 04294001#0101000045000000
(1517155182.467496) can0 0C3D4000#47D6
(1517155182.495012) can0 0E094000#001E0400106B
(1517155182.496901) can0 0E094021#001E
(1517155182.498670) can0 0E094003#000E
(1517155182.504473) can0 06314003#A2107000A2080000
(1517155182.506249) can0 0E094005#0006
(1517155182.509129) can0 04214001#0081913D00000000
(1517155182.512032) can0 04294001#0101000045000000
(1517155182.514950) can0 08094021#0000000000000000
(1517155182.517129) can0 04394000#00000000
(1517155182.519668) can0 02214000#000000000000
(1517155182.521435) can0 0E09401A#000E
(1517155182.524465) can0 0621401A#0005010080000000
(1517155182.528565) can0 06214000#21004800001C0B00
(1517155182.531102) can0 0A194005#A2151D49466800
(1517155182.538223) can0 06254000#00000000
(1517155182.548683) can0 06314000#4000000000000000
(1517155182.558818) can0 04214001#0081913D00000000
(1517155182.561740) can0 04214006#0000000000000000
(1517155182.564638) can0 0A014021#4000000000000002
(1517155182.567536) can0 04294001#0101000045000000
(1517155182.569337) can0 06354000#0000
(1517155182.571522) can0 063D4000#7B4C0000
(1517155182.578755) can0 02294000#0000000002000000
(1517155182.581215) can0 0A114005#420415000000
(1517155182.584094) can0 0A014021#5000000000000002
(1517155182.604435) can0 0C194003#055839684409A300
(1517155182.608532) can0 04214001#0081913D00000000
(1517155182.611434) can0 04294001#0101000045000000
(1517155182.613614) can0 04394000#00000000
(1517155182.629660) can0 06314005#0400000000000000
(1517155182.658622) can0 04214001#0081913D00000000
(1517155182.661578) can0 04214006#0000000000000000
(1517155182.664475) can0 04294001#0101000045000000
(1517155182.704478) can0 0C114003#05583D0042001B90
(1517155182.708459) can0 04214001#0081913D00000000
(1517155182.711374) can0 04294001#0101000045000000
(1517155182.713594) can0 04394000#00000000
(1517155182.718711) can0 08094021#0000400000000000
(1517155182.758613) can0 04214001#0081913D00000000
(1517155182.761529) can0 04214006#0000000000000000
(1517155182.764425) can0 04294001#0101000045000000
(1517155182.767283) can0 0621401A#0005010080000000
(1517155182.769823) can0 02214000#000000000000
(1517155182.778302) can0 06214000#21004800001C0B00
(1517155182.787424) can0 06254000#00000000
(1517155182.798481) can0 06314000#4000000000000000
(1517155182.804521) can0 0C2D4003#1C01820000000000
(1517155182.808319) can0 04214001#0081913D00000000
(1517155182.811243) can0 04294001#0101000045000000
(1517155182.813399) can0 04394000#00000000
(1517155182.858255) can0 04214001#0081913D00000000
(1517155182.861214) can0 04214006#0000000000000000
(1517155182.864052) can0 04294001#0101000044000000
(1517155182.874452) can0 0C394003#019100920A000000
(1517155182.904493) can0 0C394003#019100920A000000
(1517155182.908351) can0 04214001#0081913D00000000
(1517155182.911240) can0 04294001#0101000044000000
(1517155182.913412) can0 04394000#00000000
(1517155182.958128) can0 04214006#0000000000000000
(1517155182.967747) can0 04214001#0081913D00000000
(1517155182.970632) can0 04294001#0101000044000000
(1517155183.004465) can0 06314003#A2107000A2080000
(1517155183.008002) can0 04214001#0081913D00000000
(1517155183.010181) can0 04394000#00000000
(1517155183.017236) can0 0621401A#0005010080000000
(1517155183.019777) can0 02214000#000000000000
(1517155183.022658) can0 04294001#0101000044000000
(1517155183.027594) can0 06214000#21004800001C0B00
(1517155183.037213) can0 06254000#00000000
(1517155183.047693) can0 06314000#4000000000000000
(1517155183.058111) can0 04214006#0000000000000000
(1517155183.060271) can0 063D4000#7B4C0000
(1517155183.067571) can0 04214001#0081913D00000000
(1517155183.070431) can0 04294001#0101000043000000
(1517155183.072229) can0 06354000#0000
(1517155183.106884) can0 04394000#00000000
(1517155183.117903) can0 04214001#0081913D00000000
(1517155183.120769) can0 04294001#0101000043000000
(1517155183.129356) can0 06314005#0400000000000000
(1517155183.157751) can0 04214006#0000000000000000
(1517155183.167404) can0 04214001#0081913D00000000
(1517155183.170250) can0 04294001#0101000043000000
(1517155183.206688) can0 04394000#00000000
(1517155183.217584) can0 04214001#0081913D00000000
(1517155183.220464) can0 04294001#0101000043000000
(1517155183.230042) can0 06314021#0000000000000080
(1517155183.257641) can0 04214006#0000000000000000
(1517155183.266674) can0 0621401A#0005010080000000
(1517155183.269212) can0 02214000#000000000000
(1517155183.272097) can0 04214001#0081913D00000000
(1517155183.274950) can0 04294001#0101000043000000
(1517155183.277792) can0 06214000#21004800001C0B00
(1517155183.286529) can0 06254000#00000000
(1517155183.297527) can0 06314000#4000000000000000
(1517155183.304110) can0 0C214003#090408082019
(1517155183.306588) can0 04394000#00000000
(1517155183.317426) can0 04214001#0081913D00000000
(1517155183.320286) can0 04294001#0101000043000000
(1517155183.357381) can0 04214006#0000000000000000
(1517155183.367041) can0 04214001#0081913D00000000
(1517155183.369941) can0 04294001#0101000043000000
(1517155183.404415) can0 0C014003#0551D9CB88760000
(1517155183.406581) can0 04394000#00000000
(1517155183.417367) can0 04214001#0081913D00000000
(1517155183.420218) can0 04294001#0101000043000000
(1517155183.444029) can0 0A394021#0028000000000000
(1517155183.448178) can0 08194003#C0
(1517155183.457204) can0 04214006#0000000000000000
(1517155183.466882) can0 04214001#0081913D00000000
(1517155183.469735) can0 04294001#0101000043000000
(1517155183.471520) can0 0C3D4000#47D6
(1517155183.493144) can0 0E094000#001E0400106B
(1517155183.495014) can0 0E094021#001E
(1517155183.496771) can0 0E09401A#000E
(1517155183.498570) can0 0E094003#000E
(1517155183.502792) can0 0E094005#0006
(1517155183.505608) can0 06314003#A2107000A2080000
(1517155183.507786) can0 04394000#00000000
(1517155183.515512) can0 08094021#0000400000000000
(1517155183.518046) can0 02214000#000000000000
(1517155183.520911) can0 0621401A#0005010080000000
(1517155183.523767) can0 04214001#0081903D00000000
(1517155183.526623) can0 04294001#0101000043000000
(1517155183.529463) can0 06214000#21004800001C0B00
(1517155183.532005) can0 0A194005#A2151D49466800
(1517155183.536439) can0 06254000#00000000
(1517155183.546921) can0 06314000#4000000000000000
(1517155183.557046) can0 04214006#0000000000000000
(1517155183.559196) can0 063D4000#7B4C0000
(1517155183.564327) can0 0A014021#4000000000000002
(1517155183.567179) can0 04214001#0081903D00000000
(1517155183.570036) can0 04294001#0101000043000000
(1517155183.571844) can0 06354000#0000
(1517155183.577057) can0 02294000#0000000002000000
(1517155183.579513) can0 0A114005#420415000000
(1517155183.583278) can0 0A014021#5000000000000002
(1517155183.604421) can0 0C194003#055839684409A300
(1517155183.606595) can0 04394000#00000000
(1517155183.616879) can0 04214001#0081903D00000000
(1517155183.619732) can0 04294001#0101000043000000
(1517155183.628810) can0 06314005#0400000000000000
(1517155183.656905) can0 04214006#0000000000000000
(1517155183.666501) can0 04214001#0081903D00000000
(1517155183.669358) can0 04294001#0101000043000000
(1517155183.704468) can0 0C114003#05583D0042001B90
(1517155183.706637) can0 04394000#00000000
(1517155183.716660) can0 04214001#0081903D00000000
(1517155183.719515) can0 04294001#0101000043000000
(1517155183.729439) can0 06314003#2010700002080000
(1517155183.756674) can0 04214006#0000000000000000
(1517155183.766268) can0 0621401A#0005010080000000
(1517155183.768804) can0 02214000#000000000000
(1517155183.771663) can0 04214001#0081903D00000000
(1517155183.774521) can0 04294001#0101000043000000
(1517155183.777359) can0 06214000#21004800001C0B00
(1517155183.785704) can0 06254000#00000000
(1517155183.796781) can0 06314000#4000000000000000
(1517155183.804525) can0 0C2D4003#1C01820000000000
(1517155183.806700) can0 04394000#00000000
(1517155183.816492) can0 04214001#0081903D00000000
(1517155183.819339) can0 04294001#0101000043000000
(1517155183.856661) can0 04214006#0000000000000000
(1517155183.866137) can0 04214001#0081903D00000000
(1517155183.868990) can0 04294001#0101000043000000
(1517155183.889378) can0 08094021#0000800000000000
(1517155183.904474) can0 0C394003#019100920A000000
(1517155183.906648) can0 04394000#00000000
(1517155183.916415) can0 04214001#0081903D00000000
(1517155183.919267) can0 04294001#0101000043000000
(1517155183.965964) can0 04214001#0081903D00000000
(1517155183.968882) can0 04214006#0000000000000000
(1517155183.971748) can0 04294001#0101000043000000
(1517155184.004507) can0 06314003#2010700002080000
(1517155184.006678) can0 04394000#00000000
(1517155184.015827) can0 02214000#000000000000
(1517155184.018674) can0 04214001#0081903D00000000
(1517155184.021540) can0 0621401A#0005010080000000
(1517155184.024394) can0 04294001#0101000043000000
(1517155184.027234) can0 06214000#21004800001C0B00
(1517155184.035497) can0 06254000#00000000
(1517155184.045916) can0 06314000#4000000000000000
(1517155184.055653) can0 063D4000#7B4C0000
(1517155184.065792) can0 04214001#0081903D00000000
(1517155184.068706) can0 04214006#0000000000000000
(1517155184.071571) can0 04294001#0101000043000000
(1517155184.073365) can0 06354000#0000
(1517155184.105230) can0 04394000#00000000
(1517155184.116087) can0 04214001#0081903D00000000
(1517155184.118940) can0 04294001#0101000043000000
(1517155184.128398) can0 06314005#0400000000000000
(1517155184.165615) can0 04214001#0081903D00000000
(1517155184.168527) can0 04214006#0000000000000000
(1517155184.171391) can0 04294001#0101000043000000
(1517155184.205103) can0 04394000#00000000
(1517155184.215825) can0 04214001#0081903D00000000
(1517155184.218677) can0 04294001#0101000043000000
(1517155184.230705) can0 06314021#0000000000000080
(1517155184.265116) can0 02214000#000000000000
(1517155184.267972) can0 04214001#0081903D00000000
(1517155184.270898) can0 04214006#0000000000000000
(1517155184.273750) can0 0621401A#0005010080000000
(1517155184.276609) can0 04294001#0101000043000000
(1517155184.279449) can0 06214000#21004800001C0B00
(1517155184.282375) can0 08094021#0000800000000000
(1517155184.284768) can0 06254000#00000000
(1517155184.295833) can0 06314000#4000000000000000
(1517155184.304092) can0 0C214003#090408082019
(1517155184.306267) can0 04394000#00000000
(1517155184.315651) can0 04214001#0081903D00000000
(1517155184.318505) can0 04294001#0101000043000000
(1517155184.365268) can0 04214001#0081903D00000000
(1517155184.368180) can0 04214006#0000000000000000
(1517155184.371045) can0 04294001#0101000043000000
(1517155184.404407) can0 0C014003#0551D9CB88760000
(1517155184.406576) can0 04394000#00000000
(1517155184.415561) can0 04214001#0081903D00000000
(1517155184.418415) can0 04294001#0101000043000000
(1517155184.465100) can0 04214001#0081903D00000000
(1517155184.468029) can0 04214006#0000000000000000
(1517155184.470895) can0 04294001#0101000043000000
(1517155184.472666) can0 0C3D4000#47D6
(1517155184.491451) can0 0E094000#001E0400106B
(1517155184.494324) can0 0A394021#0028000000000000
(1517155184.496104) can0 0E094003#000E
(1517155184.497864) can0 0E09401A#000E
(1517155184.499462) can0 08194003#C0
(1517155184.501247) can0 0E094021#001E
(1517155184.503023) can0 0E094005#0006
(1517155184.505202) can0 04394000#00000000
(1517155184.508061) can0 06314003#2010700002080000
(1517155184.514987) can0 02214000#000000000000
(1517155184.517839) can0 04214001#0081903D00000000
(1517155184.520703) can0 04294001#0101000043000000
(1517155184.523554) can0 0621401A#0005010080000000
(1517155184.526395) can0 06214000#21004800001C0B00
(1517155184.529314) can0 08094021#0000800000000000
(1517155184.531858) can0 0A194005#A2151D49466800
(1517155184.534612) can0 06254000#00000000
(1517155184.545096) can0 06314000#4000000000000000
(1517155184.554614) can0 063D4000#7B4D0000
(1517155184.564913) can0 0A014021#4000000000000002
(1517155184.567770) can0 04214001#0081903D00000000
(1517155184.570696) can0 04214006#0000000000000000
(1517155184.573568) can0 04294001#0101000043000000
(1517155184.576608) can0 02294000#0000000002000000
(1517155184.579065) can0 0A114005#420415000000
(1517155184.580851) can0 06354000#0000
(1517155184.584106) can0 0A014021#5000000000000002
(1517155184.604412) can0 0C194003#055839684409A300
(1517155184.606586) can0 04394000#00000000
(1517155184.615250) can0 04214001#0081903D00000000
(1517155184.618109) can0 04294001#0101000043000000
(1517155184.627961) can0 06314005#0400000000000000
(1517155184.664786) can0 04214001#0081903D00000000
(1517155184.667692) can0 04214006#0000000000000000
(1517155184.670558) can0 04294001#0101000043000000
(1517155184.704467) can0 0C114003#05583D0042001B90
(1517155184.706633) can0 04394000#00000000
(1517155184.715055) can0 04214001#0081903D00000000
(1517155184.717908) can0 04294001#0101000043000000
(1517155184.764274) can0 02214000#000000000000
(1517155184.767124) can0 04214001#0081903D00000000
(1517155184.770042) can0 04214006#0000000000000000
(1517155184.772907) can0 04294001#0101000043000000
(1517155184.775739) can0 06214000#21004800001C0B00
(1517155184.778597) can0 0621401A#0005010080000000
(1517155184.784043) can0 06254000#00000000
(1517155184.794945) can0 06314000#4000000000000000
(1517155184.804521) can0 0C2D4003#1C01820000000000
(1517155184.806697) can0 04394000#00000000
(1517155184.814843) can0 04214001#0081903D00000000
(1517155184.817695) can0 04294001#0101000043000000
(1517155184.864417) can0 04214001#0081903D00000000
(1517155184.867372) can0 04214006#0000000000000000
(1517155184.870227) can0 04294001#0101000043000000
(1517155184.903651) can0 04394000#00000000
(1517155184.906485) can0 0C394003#019100920A000000
(1517155184.914827) can0 04214001#0081903D00000000
(1517155184.917680) can0 04294001#0101000043000000
(1517155184.964285) can0 04214001#0081903D00000000
(1517155184.967195) can0 04214006#0000000000000000
(1517155184.970053) can0 04294001#0101000043000000
(1517155185.003557) can0 04394000#00000000
(1517155185.006410) can0 06314003#2010700002080000
(1517155185.014254) can0 02214000#000000000000
(1517155185.017106) can0 04214001#0081903D00000000
(1517155185.019966) can0 04294001#0101000043000000
(1517155185.022830) can0 0621401A#0005010080000000
(1517155185.025664) can0 06214000#21004800001C0B00
(1517155185.033808) can0 06254000#00000000
(1517155185.044305) can0 06314000#4000000000000000
(1517155185.053848) can0 063D4000#7B4D0000
(1517155185.064162) can0 04214001#0081903D00000000
(1517155185.067080) can0 04214006#0000000000000000
(1517155185.069936) can0 04294001#0101000043000000
(1517155185.071743) can0 06354000#0000
(1517155185.103518) can0 04394000#00000000
(1517155185.114481) can0 04214001#0081903D00000000
(1517155185.117337) can0 04294001#0101000043000000
(1517155185.127526) can0 06314005#0400000000000000
(1517155185.164159) can0 04214001#0081903D00000000
(1517155185.167075) can0 04214006#0000000000000000
(1517155185.169935) can0 04294001#0101000043000000
(1517155185.203238) can0 04394000#00000000
(1517155185.214254) can0 04214001#0081903D00000000
(1517155185.217109) can0 04294001#0101000043000000
(1517155185.232358) can0 06314021#0000000000000080
(1517155185.263512) can0 02214000#000000000000
(1517155185.266365) can0 04214001#0081903D00000000
(1517155185.269222) can0 0621401A#0005010080000000
(1517155185.272148) can0 04214006#0000000000000000
(1517155185.275004) can0 04294001#0101000043000000
(1517155185.277840) can0 06214000#21004800001C0B00
(1517155185.283117) can0 06254000#00000000
(1517155185.294149) can0 06314000#4000000000000000
(1517155185.303062) can0 04394000#00000000
(1517155185.305515) can0 0C214003#090408082019
(1517155185.314059) can0 04214001#0081903D00000000
(1517155185.316914) can0 04294001#0101000043000000
(1517155185.363836) can0 04214001#0081903D00000000
(1517155185.366747) can0 04214006#0000000000000000
(1517155185.369606) can0 04294001#0101000043000000
(1517155185.402784) can0 04394000#00000000
(1517155185.405543) can0 0C014003#0551D9CB88760000
(1517155185.414008) can0 04214001#0081903D00000000
(1517155185.416861) can0 04294001#0101000043000000
(1517155185.463437) can0 04214001#0081903D00000000
(1517155185.466355) can0 04214006#0000000000000000
(1517155185.469213) can0 04294001#0101000043000000
(1517155185.471000) can0 0C3D4000#47D6
(1517155185.489835) can0 0E094000#001E0400106B
(1517155185.491661) can0 0E094021#001E
(1517155185.493457) can0 0E094003#000E
(1517155185.495223) can0 0E09401A#000E
(1517155185.501077) can0 0E094005#0006
(1517155185.503274) can0 04394000#00000000
(1517155185.506113) can0 06314003#2010700002080000
(1517155185.513417) can0 02214000#000000000000
(1517155185.516267) can0 04214001#0081903D00000000
(1517155185.519123) can0 04294001#0101000043000000
(1517155185.521986) can0 0621401A#0005010080000000
(1517155185.524823) can0 06214000#21004800001C0B00
(1517155185.527360) can0 0A194005#A2151D49466800
(1517155185.530239) can0 0A394021#0028000000000000
(1517155185.533207) can0 08094021#0000800000000000
(1517155185.535399) can0 06254000#00000000
(1517155185.536999) can0 08194003#C0
(1517155185.543326) can0 06314000#4000000000000000
(1517155185.553038) can0 063D4000#7B4D0000
(1517155185.563242) can0 04214001#0081903D00000000
(1517155185.566195) can0 04214006#0000000000000000
(1517155185.569055) can0 04294001#0101000043000000
(1517155185.571959) can0 0A014021#4000000000000002
(1517155185.573735) can0 06354000#0000
(1517155185.576693) can0 02294000#0000000002000000
(1517155185.579150) can0 0A114005#420415000000
(1517155185.590581) can0 0A014021#5000000000000002
(1517155185.602475) can0 04394000#00000000
(1517155185.605250) can0 0C194003#055839684409A300
(1517155185.613453) can0 04214001#0081903D00000000
(1517155185.616307) can0 04294001#0101000043000000
(1517155185.627104) can0 06314005#0400000000000000
(1517155185.663058) can0 04214001#0081903D00000000
(1517155185.665973) can0 04214006#0000000000000000
(1517155185.668832) can0 04294001#0101000043000000
(1517155185.702253) can0 04394000#00000000
(1517155185.705075) can0 0C114003#05583D0042001B90
(1517155185.713277) can0 04214001#0081903D00000000
(1517155185.716128) can0 04294001#0101000043000000
(1517155185.762566) can0 02214000#000000000000
(1517155185.765422) can0 04214001#0081903D00000000
(1517155185.768341) can0 04214006#0000000000000000
(1517155185.771206) can0 04294001#0101000043000000
(1517155185.774039) can0 06214000#21004800001C0B00
(1517155185.776896) can0 0621401A#0005010080000000
(1517155185.782241) can0 06254000#00000000
(1517155185.793279) can0 06314000#4000000000000000
(1517155185.802277) can0 04394000#00000000
(1517155185.805152) can0 0C2D4003#1C01820000000000
(1517155185.813176) can0 04214001#0081903D00000000
(1517155185.816031) can0 04294001#0101000043000000
(1517155185.862838) can0 04214001#0081903D00000000
(1517155185.865747) can0 04214006#0000000000000000
(1517155185.868605) can0 04294001#0101000043000000
(1517155185.902009) can0 04394000#00000000
(1517155185.904841) can0 0C394003#019100920A000000
(1517155185.912995) can0 04214001#0081903D00000000
(1517155185.915844) can0 04294001#0101000043000000
(1517155185.962702) can0 04214001#0081903D00000000
(1517155185.965613) can0 04214006#0000000000000000
(1517155185.968471) can0 04294001#0101000043000000
(1517155186.001769) can0 04394000#00000000
(1517155186.004648) can0 06314003#2010700002080000
(1517155186.012433) can0 02214000#000000000000
(1517155186.015285) can0 04214001#0081903D00000000
(1517155186.018144) can0 04294001#0101000043000000
(1517155186.021008) can0 0621401A#0005010080000000
(1517155186.023842) can0 06214000#21004800001C0B00
(1517155186.032025) can0 06254000#00000000
(1517155186.042483) can0 06314000#4000000000000000
(1517155186.052524) can0 063D4000#7B4D0000
(1517155186.062399) can0 04214001#0081903D00000000
(1517155186.065316) can0 04214006#0000000000000000
(1517155186.068174) can0 04294001#0101000043000000
(1517155186.069974) can0 06354000#0000
(1517155186.101737) can0 04394000#00000000
(1517155186.112654) can0 04214001#0081903D00000000
(1517155186.115509) can0 04294001#0101000043000000
(1517155186.126686) can0 06314005#0400000000000000
(1517155186.162363) can0 04214001#0081903D00000000
(1517155186.165274) can0 04214006#0000000000000000
(1517155186.168133) can0 04294001#0101000043000000
(1517155186.201439) can0 04394000#00000000
(1517155186.212376) can0 04214001#0081903D00000000
(1517155186.215228) can0 04294001#0101000043000000
(1517155186.232973) can0 06314021#0000000000000080
(1517155186.261698) can0 02214000#000000000000
(1517155186.264555) can0 04214001#0081903D00000000
(1517155186.267466) can0 04214006#0000000000000000
(1517155186.270321) can0 0621401A#0005010080000000
(1517155186.273187) can0 04294001#0101000043000000
(1517155186.276059) can0 06214000#21004800001C0B00
(1517155186.281363) can0 06254000#00000000
(1517155186.292303) can0 06314000#4000000000000000
(1517155186.301261) can0 04394000#00000000
(1517155186.304076) can0 0C214003#090408082019
(1517155186.312161) can0 04214001#0081903D00000000
(1517155186.315054) can0 04294001#0101000043000000
(1517155186.361953) can0 04214001#0081903D00000000
(1517155186.364869) can0 04214006#0000000000000000
(1517155186.367727) can0 04294001#0101000043000000
(1517155186.401110) can0 04394000#00000000
(1517155186.404382) can0 0C014003#0551D9CB88760000
(1517155186.412146) can0 04214001#0081903D00000000
(1517155186.414999) can0 04294001#0101000043000000
(1517155186.461650) can0 04214001#0081903D00000000
(1517155186.464555) can0 04214006#0000000000000000
(1517155186.467413) can0 04294001#0101000043000000
(1517155186.469192) can0 0C3D4000#47D6
(1517155186.488014) can0 0E094000#001E0400106B
(1517155186.489851) can0 0E094021#001E
(1517155186.491656) can0 0E094005#0002
(1517155186.493447) can0 0E094003#000E
(1517155186.495206) can0 0E09401A#000E
(1517155186.500972) can0 04394000#00000000
(1517155186.504466) can0 06314003#2010700002080000
(1517155186.511530) can0 02214000#000000000000
(1517155186.514384) can0 04214001#0081903D00000000
(1517155186.517243) can0 04294001#0101000043000000
(1517155186.520103) can0 0621401A#0005010080000000
(1517155186.522948) can0 06214000#21004800001C0B00
(1517155186.525863) can0 08094021#0000800000000000
(1517155186.528400) can0 0A194005#A2151D49466800
(1517155186.531146) can0 06254000#00000000
(1517155186.541603) can0 06314000#4000000000000000
(1517155186.551809) can0 063D4000#7B4D0000
(1517155186.554679) can0 0A394021#0028000000000000
(1517155186.558136) can0 08194003#C0
(1517155186.561462) can0 04214001#0081903D00000000
(1517155186.564375) can0 04214006#0000000000000000
(1517155186.567234) can0 04294001#0101000043000000
(1517155186.570133) can0 0A014021#4000000000000002
(1517155186.571921) can0 06354000#0000
(1517155186.574874) can0 02294000#0000000002000000
(1517155186.577333) can0 0A114005#420415000000
(1517155186.589177) can0 0A014021#5000000000000002
(1517155186.600738) can0 04394000#00000000
(1517155186.604389) can0 0C194003#055839684409A300
(1517155186.611808) can0 04214001#0081903D00000000
(1517155186.614688) can0 04294001#0101000043000000
(1517155186.626237) can0 06314005#0400000000000000
(1517155186.661316) can0 04214001#0081903D00000000
(1517155186.664296) can0 04214006#0000000000000000
(1517155186.667153) can0 04294001#0101000043000000
(1517155186.700692) can0 04394000#00000000
(1517155186.704432) can0 0C114003#05583D0042001B90
(1517155186.711635) can0 04214001#0081903D00000000
(1517155186.714488) can0 04294001#0101000043000000
(1517155186.760774) can0 02214000#000000000000
(1517155186.763701) can0 04214001#0081903D00000000
(1517155186.766620) can0 04214006#0000000000000000
(1517155186.769480) can0 0621401A#0005010080000000
(1517155186.772345) can0 04294001#0101000043000000
(1517155186.775177) can0 06214000#21004800001C0B00
(1517155186.780416) can0 06254000#00000000
(1517155186.791449) can0 06314000#4000000000000000
(1517155186.800355) can0 04394000#00000000
(1517155186.804502) can0 0C2D4003#1C01820000000000
(1517155186.811299) can0 04214001#0081903D00000000
(1517155186.814152) can0 04294001#0101000043000000
(1517155186.860916) can0 04214001#0081903D00000000
(1517155186.863827) can0 04214006#0000000000000000
(1517155186.866685) can0 04294001#0101000043000000
(1517155186.900206) can0 04394000#00000000
(1517155186.904443) can0 0C394003#019100920A000000
(1517155186.911130) can0 04214001#0081903D00000000
(1517155186.913980) can0 04294001#0101000043000000
(1517155186.960739) can0 04214001#0081903D00000000
(1517155186.963734) can0 04214006#0000000000000000
(1517155186.966592) can0 04294001#0101000043000000
(1517155187.000041) can0 04394000#00000000
(1517155187.004474) can0 06314003#2010700002080000
(1517155187.010756) can0 02214000#000000000000
(1517155187.013686) can0 04214001#0081903D00000000
(1517155187.016544) can0 04294001#0101000043000000
(1517155187.019402) can0 0621401A#0005010080000000
(1517155187.022247) can0 06214000#21004800001C0B00
(1517155187.030284) can0 06254000#00000000
(1517155187.040729) can0 06314000#4000000000000000
(1517155187.051283) can0 063D4000#7B4D0000
(1517155187.060563) can0 04214001#0081903D00000000
(1517155187.063476) can0 04214006#0000000000000000
(1517155187.066336) can0 04294001#0101000043000000
(1517155187.068136) can0 06354000#0000
(1517155187.099862) can0 04394000#00000000
(1517155187.110798) can0 04214001#0081903D00000000
(1517155187.113670) can0 04294001#0101000043000000
(1517155187.125825) can0 06314005#0400000000000000
(1517155187.160382) can0 04214001#0081903D00000000
(1517155187.163303) can0 04214006#0000000000000000
(1517155187.166155) can0 04294001#0101000043000000
(1517155187.199688) can0 04394000#00000000
(1517155187.210600) can0 04214001#0081903D00000000
(1517155187.213448) can0 04294001#0101000043000000
(1517155187.233655) can0 06314021#0000000000000080
(1517155187.259891) can0 02214000#000000000000
(1517155187.262747) can0 04214001#0081903D00000000
(1517155187.265664) can0 04214006#0000000000000000
(1517155187.268521) can0 04294001#0101000043000000
(1517155187.271368) can0 06214000#21004800001C0B00
(1517155187.274220) can0 0621401A#0005010080000000
(1517155187.279538) can0 06254000#00000000
(1517155187.290605) can0 06314000#4000000000000000
(1517155187.299596) can0 04394000#00000000
(1517155187.304061) can0 0C214003#090408082019
(1517155187.310514) can0 04214001#0081903D00000000
(1517155187.313375) can0 04294001#0101000043000000
(1517155187.360038) can0 04214001#0081903D00000000
(1517155187.362953) can0 04214006#0000000000000000
(1517155187.365808) can0 04294001#0101000043000000
(1517155187.399330) can0 04394000#00000000
(1517155187.404372) can0 0C014003#0551D9CB88760000
(1517155187.410242) can0 04214001#0081903D00000000
(1517155187.413107) can0 04294001#0101000043000000
(1517155187.459864) can0 04214001#0081903D00000000
(1517155187.462776) can0 04214006#0000000000000000
(1517155187.465634) can0 04294001#0101000043000000
(1517155187.467432) can0 0C3D4000#47D6
(1517155187.486336) can0 0E094000#001E0400106B
(1517155187.488169) can0 0E094021#001E
(1517155187.489951) can0 0E094003#000E
(1517155187.491753) can0 0E094005#0002
(1517155187.493506) can0 0E09401A#000E
(1517155187.499165) can0 04394000#00000000
(1517155187.504468) can0 06314003#2010700002080000
(1517155187.509865) can0 02214000#000000000000
(1517155187.512731) can0 04214001#0081903D00000000
(1517155187.515583) can0 04294001#0101000043000000
(1517155187.518442) can0 0621401A#0005010080000000
(1517155187.521287) can0 06214000#21004800001C0B00
(1517155187.524203) can0 08094021#0000800000000000
(1517155187.526739) can0 0A194005#A2151D49466800
(1517155187.529399) can0 06254000#00000000
(1517155187.539825) can0 06314000#4000000000000000
(1517155187.550281) can0 063D4000#7B4D0000
(1517155187.559719) can0 04214001#0081903D00000000
(1517155187.562658) can0 04214006#0000000000000000
(1517155187.565515) can0 04294001#0101000043000000
(1517155187.568414) can0 0A014021#4000000000000002
(1517155187.570194) can0 06354000#0000
(1517155187.573161) can0 02294000#0000000002000000
(1517155187.575612) can0 0A114005#420415000000
(1517155187.578492) can0 0A394021#0028000000000000
(1517155187.583223) can0 08194003#C0
(1517155187.586812) can0 0A014021#5000000000000002
(1517155187.599115) can0 04394000#00000000
(1517155187.604377) can0 0C194003#055839684409A300
(1517155187.609973) can0 04214001#0081903D00000000
(1517155187.612837) can0 04294001#0101000043000000
(1517155187.625382) can0 06314005#0400000000000000
(1517155187.659521) can0 04214001#0081903D00000000
(1517155187.662435) can0 04214006#0000000000000000
(1517155187.665292) can0 04294001#0101000043000000
(1517155187.698842) can0 04394000#00000000
(1517155187.704436) can0 0C114003#05583D0042001B90
(1517155187.709789) can0 04214001#0081903D00000000
(1517155187.712654) can0 04294001#0101000043000000
(1517155187.759012) can0 02214000#000000000000
(1517155187.761864) can0 04214001#0081903D00000000
(1517155187.764781) can0 04214006#0000000000000000
(1517155187.767638) can0 04294001#0101000043000000
(1517155187.770480) can0 06214000#21004800001C0B00
(1517155187.773337) can0 0621401A#0005010080000000
(1517155187.778696) can0 06254000#00000000
(1517155187.789721) can0 06314000#4000000000000000
(1517155187.798594) can0 04394000#00000000
(1517155187.804479) can0 0C2D4003#1C01820000000000
(1517155187.809574) can0 04214001#0081903D00000000
(1517155187.812480) can0 04294001#0101000043000000
(1517155187.859157) can0 04214001#0081903D00000000
(1517155187.862070) can0 04214006#0000000000000000
(1517155187.864928) can0 04294001#0101000043000000
(1517155187.898589) can0 04394000#00000000
(1517155187.904446) can0 0C394003#019100920A000000
(1517155187.909524) can0 04214001#0081903D00000000
(1517155187.912390) can0 04294001#0101000043000000
(1517155187.958987) can0 04214001#0081903D00000000
(1517155187.961899) can0 04214006#0000000000000000
(1517155187.964756) can0 04294001#0101000043000000
(1517155187.998261) can0 04394000#00000000
(1517155188.004457) can0 06314003#2010700002080000
(1517155188.008851) can0 02214000#000000000000
(1517155188.011738) can0 04214001#0081903D00000000
(1517155188.014595) can0 04294001#0101000043000000
(1517155188.017450) can0 0621401A#0005010080000000
(1517155188.020290) can0 06214000#21004800001C0B00
(1517155188.028555) can0 06254000#00000000
(1517155188.039015) can0 06314000#4000000000000000
(1517155188.048629) can0 063D4000#7B4D0000
(1517155188.058812) can0 04214001#0081903D00000000
(1517155188.061729) can0 04214006#0000000000000000
(1517155188.064581) can0 04294001#0101000043000000
(1517155188.066386) can0 06354000#0000
(1517155188.098083) can0 04394000#00000000
(1517155188.109099) can0 04214001#0081903D00000000
(1517155188.111963) can0 04294001#0101000043000000
(1517155188.124969) can0 06314005#0400000000000000
(1517155188.158645) can0 04214001#0081903D00000000
(1517155188.161562) can0 04214006#0000000000000000
(1517155188.164460) can0 04294001#0101000043000000
(1517155188.198000) can0 04394000#00000000
(1517155188.208818) can0 04214001#0081903D00000000
(1517155188.211676) can0 04294001#0101000043000000
(1517155188.234338) can0 06314021#0000000000000080
(1517155188.258159) can0 02214000#000000000000
(1517155188.261013) can0 04214001#0081903D00000000
(1517155188.263927) can0 04214006#0000000000000000
(1517155188.266785) can0 04294001#0101000043000000
(1517155188.269625) can0 06214000#21004800001C0B00
(1517155188.272489) can0 0621401A#0005010080000000
(1517155188.277841) can0 06254000#00000000
(1517155188.288883) can0 06314000#4000000000000000
(1517155188.297866) can0 04394000#00000000
(1517155188.304064) can0 0C214003#090408082019
(1517155188.308638) can0 04214001#0081903D00000000
(1517155188.311503) can0 04294001#0101000043000000
(1517155188.358302) can0 04214001#0081903D00000000
(1517155188.361238) can0 04214006#0000000000000000
(1517155188.364089) can0 04294001#0101000043000000
(1517155188.397551) can0 04394000#00000000
(1517155188.404347) can0 0C014003#0551D9CB88760000
(1517155188.408503) can0 04214001#0081903D00000000
(1517155188.411390) can0 04294001#0101000043000000
(1517155188.458148) can0 04214001#0081903D00000000
(1517155188.461099) can0 04214006#0000000000000000
(1517155188.463954) can0 04294001#0101000043000000
(1517155188.465733) can0 0C3D4000#47D6
(1517155188.484478) can0 0E094000#001E0400106B
(1517155188.486290) can0 0E094021#001E
(1517155188.488389) can0 0E094003#000E
(1517155188.490187) can0 0E094005#0002
(1517155188.492311) can0 0E09401A#000E
(1517155188.497385) can0 04394000#00000000
(1517155188.504451) can0 06314003#2010700002080000
(1517155188.508004) can0 02214000#000000000000
(1517155188.513008) can0 0621401A#0005010080000000
(1517155188.518040) can0 04214001#0081903D00000000
(1517155188.520904) can0 04294001#0101000043000000
(1517155188.523742) can0 06214000#21004800001C0B00
(1517155188.526660) can0 08094021#0000800000000000
(1517155188.528860) can0 06254000#00000000
(1517155188.531407) can0 0A194005#A2151D49466800
(1517155188.538216) can0 06314000#4000000000000000
(1517155188.547561) can0 063D4000#7B4D0000
(1517155188.557985) can0 04214001#0081903D00000000
(1517155188.560899) can0 04214006#0000000000000000
(1517155188.563753) can0 04294001#0101000043000000
(1517155188.565552) can0 06354000#0000
(1517155188.568514) can0 02294000#0000000002000000
(1517155188.571418) can0 0A014021#4000000000000002
(1517155188.574112) can0 0A114005#420415000000
(1517155188.590516) can0 0A014021#5000000000000002
(1517155188.597210) can0 04394000#00000000
(1517155188.600657) can0 0A394021#0028000000000000
(1517155188.604369) can0 0C194003#055839684409A300
(1517155188.613234) can0 08194003#C0
(1517155188.617870) can0 04214001#0081903D00000000
(1517155188.620735) can0 04294001#0101000043000000
(1517155188.624528) can0 06314005#0400000000000000
(1517155188.657829) can0 04214001#0081903D00000000
(1517155188.660750) can0 04214006#0000000000000000
(1517155188.663602) can0 04294001#0101000043000000
(1517155188.697035) can0 04394000#00000000
(1517155188.704424) can0 0C114003#05583D0042001B90
(1517155188.717702) can0 04214001#0081903D00000000
(1517155188.720559) can0 04294001#0101000043000000
(1517155188.757316) can0 02214000#000000000000
(1517155188.760168) can0 04214001#0081903D00000000
(1517155188.763171) can0 04214006#0000000000000000
(1517155188.766029) can0 04294001#0101000043000000
(1517155188.768868) can0 06214000#21004800001C0B00
(1517155188.771731) can0 0621401A#0005010080000000
(1517155188.776943) can0 06254000#00000000
(1517155188.787947) can0 06314000#4000000000000000
(1517155188.796889) can0 04394000#00000000
(1517155188.804466) can0 0C2D4003#1C01820000000000
(1517155188.817485) can0 04214001#0081903D00000000
(1517155188.820339) can0 04294001#0101000043000000
(1517155188.857499) can0 04214001#0081903D00000000
(1517155188.860414) can0 04214006#0000000000000000
(1517155188.863282) can0 04294001#0101000043000000
(1517155188.896720) can0 04394000#00000000
(1517155188.904437) can0 0C394003#019100920A000000
(1517155188.917352) can0 04214001#0081903D00000000
(1517155188.920227) can0 04294001#0101000043000000
(1517155188.957335) can0 04214001#0081903D00000000
(1517155188.960242) can0 04214006#0000000000000000
(1517155188.963126) can0 04294001#0101000043000000
(1517155188.996540) can0 04394000#00000000
(1517155189.004458) can0 06314003#2010700002080000
(1517155189.007214) can0 02214000#000000000000
(1517155189.012739) can0 0621401A#0005010080000000
(1517155189.017150) can0 04214001#0081903D00000000
(1517155189.020009) can0 04294001#0101000043000000
(1517155189.022860) can0 06214000#21004800001C0B00
(1517155189.026947) can0 06254000#00000000
(1517155189.037213) can0 06314000#4000000000000000
(1517155189.046711) can0 063D4000#7B4D0000
(1517155189.057150) can0 04214001#0081903D00000000
(1517155189.060083) can0 04214006#0000000000000000
(1517155189.063047) can0 04294001#0101000043000000
(1517155189.064844) can0 06354000#0000
(1517155189.096373) can0 04394000#00000000
(1517155189.117005) can0 04214001#0081903D00000000
(1517155189.119857) can0 04294001#0101000043000000
(1517155189.124100) can0 06314005#0400000000000000
(1517155189.156977) can0 04214001#0081903D00000000
(1517155189.159887) can0 04214006#0000000000000000
(1517155189.162753) can0 04294001#0101000043000000
(1517155189.165687) can0 08094021#0000400000000000
(1517155189.196192) can0 04394000#00000000
(1517155189.216807) can0 04214001#0081903D00000000
(1517155189.219661) can0 04294001#0101000043000000
(1517155189.234966) can0 06314021#0000000000000080
(1517155189.256486) can0 02214000#000000000000
(1517155189.259338) can0 04214001#0081903D00000000
(1517155189.262263) can0 04214006#0000000000000000
(1517155189.265115) can0 04294001#0101000043000000
(1517155189.267972) can0 0621401A#0005010080000000
(1517155189.270818) can0 06214000#21004800001C0B00
(1517155189.273732) can0 08094021#0000800000000000
(1517155189.276091) can0 06254000#00000000
(1517155189.287108) can0 06314000#4000000000000000
(1517155189.296146) can0 04394000#00000000
(1517155189.304055) can0 0C214003#090408082019
(1517155189.316616) can0 04214001#0081903D00000000
(1517155189.319467) can0 04294001#0101000043000000
(1517155189.356629) can0 04214001#0081903D00000000
(1517155189.359540) can0 04214006#0000000000000000
(1517155189.362405) can0 04294001#0101000043000000
(1517155189.395844) can0 04394000#00000000
(1517155189.404342) can0 0C014003#0551D9CB88760000
(1517155189.416459) can0 04214001#0081903D00000000
(1517155189.419314) can0 04294001#0101000043000000
(1517155189.456458) can0 04214001#0081903D00000000
(1517155189.459367) can0 04214006#0000000000000000
(1517155189.462231) can0 04294001#0101000043000000
(1517155189.464005) can0 0C3D4000#47D6
(1517155189.482686) can0 0E094000#001E0400106B
(1517155189.484483) can0 0E094021#001E
(1517155189.487683) can0 0E094005#0002
(1517155189.489462) can0 0E094003#000E
(1517155189.491584) can0 0E09401A#000E
(1517155189.495796) can0 04394000#00000000
(1517155189.504455) can0 06314003#2010700002080000
(1517155189.506979) can0 02214000#000000000000
(1517155189.512698) can0 0621401A#0005010080000000
(1517155189.516313) can0 04214001#0081903D00000000
(1517155189.519172) can0 04294001#0101000043000000
(1517155189.522017) can0 06214000#21004800001C0B00
(1517155189.524931) can0 08094021#0000800000000000
(1517155189.527129) can0 06254000#00000000
(1517155189.529669) can0 0A194005#A2151D49466800
(1517155189.536433) can0 06314000#4000000000000000
(1517155189.545949) can0 063D4000#7B4D0000
(1517155189.556273) can0 04214001#0081903D00000000
(1517155189.559185) can0 04214006#0000000000000000
(1517155189.562051) can0 04294001#0101000043000000
(1517155189.563844) can0 06354000#0000
(1517155189.566804) can0 02294000#0000000002000000
(1517155189.569704) can0 0A014021#4000000000000002
(1517155189.573267) can0 0A114005#420415000000
(1517155189.588187) can0 0A014021#5000000000000002
(1517155189.595485) can0 04394000#00000000
(1517155189.604363) can0 0C194003#055839684409A300
(1517155189.616087) can0 04214001#0081903D00000000
(1517155189.618939) can0 04294001#0101000043000000
(1517155189.621884) can0 08094021#0000400000000000
(1517155189.624796) can0 06314005#0400000000000000
(1517155189.651841) can0 0A394021#0028000000000000
(1517155189.656135) can0 04214001#0081903D00000000
(1517155189.659055) can0 04214006#0000000000000000
(1517155189.661918) can0 04294001#0101000043000000
(1517155189.663516) can0 08194003#C0
(1517155189.695319) can0 04394000#00000000
(1517155189.704403) can0 0C114003#05583D0042001B90
(1517155189.715944) can0 04214001#0081903D00000000
(1517155189.718791) can0 04294001#0101000043000000
(1517155189.755655) can0 02214000#000000000000
(1517155189.758524) can0 04214001#0081903D00000000
(1517155189.761488) can0 04214006#0000000000000000
(1517155189.764341) can0 04294001#0101000043000000
(1517155189.767181) can0 06214000#21004800001C0B00
(1517155189.770040) can0 0621401A#0005010080000000
(1517155189.775224) can0 06254000#00000000
(1517155189.786181) can0 06314000#4000000000000000
(1517155189.795123) can0 04394000#00000000
(1517155189.804461) can0 0C2D4003#1C01820000000000
(1517155189.815740) can0 04214001#0081903D00000000
(1517155189.818596) can0 04294001#0101000043000000
(1517155189.855758) can0 04214001#0081903D00000000
(1517155189.858671) can0 04214006#0000000000000000
(1517155189.861534) can0 04294001#0101000043000000
(1517155189.894949) can0 04394000#00000000
(1517155189.904430) can0 0C394003#019100920A000000
(1517155189.915635) can0 04214001#0081903D00000000
(1517155189.918489) can0 04294001#0101000043000000
(1517155189.955591) can0 04214001#0081903D00000000
(1517155189.958498) can0 04214006#0000000000000000
(1517155189.961360) can0 04294001#0101000043000000
(1517155189.994800) can0 04394000#00000000
(1517155190.004437) can0 06314003#2010700002080000
(1517155190.006972) can0 02214000#000000000000
(1517155190.012353) can0 0621401A#0005010080000000
(1517155190.015486) can0 04214001#0081903D00000000
(1517155190.018345) can0 04294001#0101000043000000
(1517155190.021268) can0 06214000#21004800001C0B00
(1517155190.025027) can0 06254000#00000000
(1517155190.035531) can0 06314000#4000000000000000
(1517155190.044928) can0 063D4000#7B4D0000
(1517155190.055606) can0 04214001#0081903D00000000
(1517155190.058519) can0 04214006#0000000000000000
(1517155190.061384) can0 04294001#0101000043000000
(1517155190.063179) can0 06354000#0000
(1517155190.094585) can0 04394000#00000000
(1517155190.115259) can0 04214001#0081903D00000000
(1517155190.118111) can0 04294001#0101000043000000
(1517155190.123257) can0 06314005#0400000000000000
(1517155190.155233) can0 04214001#0081903D00000000
(1517155190.158143) can0 04214006#0000000000000000
(1517155190.161008) can0 04294001#0101000043000000
(1517155190.194423) can0 04394000#00000000
(1517155190.215065) can0 04214001#0081903D00000000
(1517155190.217915) can0 04294001#0101000043000000
(1517155190.235581) can0 06314021#0000000000000080
(1517155190.254736) can0 02214000#000000000000
(1517155190.257609) can0 04214001#0081903D00000000
(1517155190.260528) can0 04214006#0000000000000000
(1517155190.263393) can0 04294001#0101000043000000
(1517155190.266230) can0 06214000#21004800001C0B00
(1517155190.269085) can0 0621401A#0005010080000000
(1517155190.274510) can0 06254000#00000000
(1517155190.285369) can0 06314000#4000000000000000
(1517155190.294347) can0 04394000#00000000
(1517155190.304047) can0 0C214003#090408082019
(1517155190.314865) can0 04214001#0081903D00000000
(1517155190.317720) can0 04294001#0101000043000000
(1517155190.354927) can0 04214001#0081903D00000000
(1517155190.357877) can0 04214006#0000000000000000
(1517155190.360740) can0 04294001#0101000043000000
(1517155190.394079) can0 04394000#00000000
(1517155190.404336) can0 0C014003#0551D9CB88760000
(1517155190.414692) can0 04214001#0081903D00000000
(1517155190.417547) can0 04294001#0101000043000000
(1517155190.454710) can0 04214001#0081903D00000000
(1517155190.457630) can0 04214006#0000000000000000
(1517155190.460522) can0 04294001#0101000043000000
(1517155190.481506) can0 0E094000#001E0400106B
(1517155190.483318) can0 0E094021#001E
(1517155190.485097) can0 0E094003#000E
(1517155190.486896) can0 0E094005#0002
(1517155190.490559) can0 0E09401A#000E
(1517155190.493894) can0 04394000#00000000
(1517155190.504437) can0 06314003#2010700002080000
(1517155190.506976) can0 02214000#000000000000
(1517155190.511979) can0 0621401A#0005010080000000
(1517155190.514833) can0 04214001#0081903D00000000
(1517155190.517689) can0 04294001#0101000043000000
(1517155190.520530) can0 06214000#21004800001C0B00
(1517155190.523469) can0 08094021#0000400000000000
(1517155190.525669) can0 06254000#00000000
(1517155190.528207) can0 0A194005#A2151D49466800
(1517155190.534593) can0 06314000#4000000000000000
(1517155190.544050) can0 063D4000#7B4D0000
(1517155190.554589) can0 04214001#0081903D00000000
(1517155190.557505) can0 04214006#0000000000000000
(1517155190.560363) can0 04294001#0101000043000000
(1517155190.562166) can0 06354000#0000
(1517155190.565125) can0 02294000#0000000002000000
(1517155190.569783) can0 0A014021#4000000000000002
(1517155190.572408) can0 0A114005#420415000000
(1517155190.588746) can0 0A014021#5000000000000002
(1517155190.593785) can0 04394000#00000000
(1517155190.604345) can0 0C194003#055839684409A300
(1517155190.614364) can0 04214001#0081903D00000000
(1517155190.617219) can0 04294001#0101000043000000
(1517155190.622817) can0 06314005#0400000000000000
(1517155190.654458) can0 04214001#0081903D00000000
(1517155190.657409) can0 04214006#0000000000000000
(1517155190.660306) can0 04294001#0101000043000000
(1517155190.693555) can0 04394000#00000000
(1517155190.704389) can0 0C114003#05583D0042001B90
(1517155190.707263) can0 0A394021#0028000000000000
(1517155190.714268) can0 04214001#0081903D00000000
(1517155190.717120) can0 04294001#0101000043000000
(1517155190.718720) can0 08194003#C0
(1517155190.753962) can0 02214000#000000000000
(1517155190.756817) can0 04214001#0081903D00000000
(1517155190.759794) can0 04214006#0000000000000000
(1517155190.762659) can0 0621401A#0005010080000000
(1517155190.765514) can0 04294001#0101000043000000
(1517155190.768353) can0 06214000#21004800001C0B00
(1517155190.773505) can0 06254000#00000000
(1517155190.784540) can0 06314000#4000000000000000
(1517155190.793520) can0 04394000#00000000
(1517155190.804454) can0 0C2D4003#1C01820000000000
(1517155190.814097) can0 04214001#0081903D00000000
(1517155190.816951) can0 04294001#0101000043000000
(1517155190.854070) can0 04214001#0081903D00000000
(1517155190.856983) can0 04214006#0000000000000000
(1517155190.864206) can0 04294001#0101000043000000
(1517155190.893227) can0 04394000#00000000
(1517155190.904403) can0 0C394003#019100920A000000
(1517155190.914045) can0 04214001#0081903D00000000
(1517155190.916936) can0 04294001#0101000043000000
(1517155190.953962) can0 04214001#0081903D00000000
(1517155190.956871) can0 04214006#0000000000000000
(1517155190.964034) can0 04294001#0101000043000000
(1517155190.993197) can0 04394000#00000000
(1517155191.003631) can0 02214000#000000000000
(1517155191.006484) can0 06314003#2010700002080000
(1517155191.011347) can0 0621401A#0005010080000000
(1517155191.014199) can0 04214001#0081903D00000000
(1517155191.017058) can0 04294001#0101000043000000
(1517155191.019898) can0 06214000#21004800001C0B00
(1517155191.023363) can0 06254000#00000000
(1517155191.033721) can0 06314000#4000000000000000
(1517155191.043197) can0 063D4000#7B4D0000
(1517155191.053760) can0 04214001#0081903D00000000
(1517155191.056673) can0 04214006#0000000000000000
(1517155191.058472) can0 06354000#0000
(1517155191.063856) can0 04294001#0101000043000000
(1517155191.092893) can0 04394000#00000000
(1517155191.113813) can0 04214001#0081903D00000000
(1517155191.116705) can0 04294001#0101000043000000
(1517155191.122385) can0 06314005#0400000000000000
(1517155191.153640) can0 04214006#0000000000000000
(1517155191.163656) can0 04214001#0081903D00000000
(1517155191.166512) can0 04294001#0101000043000000
(1517155191.192802) can0 04394000#00000000
(1517155191.213553) can0 04214001#0081903D00000000
(1517155191.216405) can0 04294001#0101000043000000
(1517155191.236214) can0 06314021#0000000000000080
(1517155191.253171) can0 02214000#000000000000
(1517155191.256143) can0 04214006#0000000000000000
(1517155191.261144) can0 0621401A#0005010080000000
(1517155191.263998) can0 04214001#0081903D00000000
(1517155191.266877) can0 04294001#0101000043000000
(1517155191.269716) can0 06214000#21004800001C0B00
(1517155191.272701) can0 06254000#00000000
(1517155191.283740) can0 06314000#4000000000000000
(1517155191.292562) can0 04394000#00000000
(1517155191.304019) can0 0C214003#090408082019
(1517155191.313578) can0 04214001#0081903D00000000
(1517155191.316430) can0 04294001#0101000043000000
(1517155191.353475) can0 04214006#0000000000000000
(1517155191.363473) can0 04214001#0081903D00000000
(1517155191.366325) can0 04294001#0101000043000000
(1517155191.392370) can0 04394000#00000000
(1517155191.404324) can0 0C014003#0551D9CB88760000
(1517155191.413347) can0 04214001#0081903D00000000
(1517155191.416199) can0 04294001#0101000043000000
(1517155191.463195) can0 04214001#0081903D00000000
(1517155191.466132) can0 04214006#0000000000000000
(1517155191.468990) can0 04294001#0101000043000000
(1517155191.480295) can0 0E094000#001E0400106B
(1517155191.482130) can0 0E094021#001E
(1517155191.483907) can0 0E094003#000E
(1517155191.485966) can0 0E094005#0002
(1517155191.489883) can0 0E09401A#000E
(1517155191.492269) can0 04394000#00000000
(1517155191.502807) can0 02214000#000000000000
(1517155191.505662) can0 06314003#2010700002080000
(1517155191.510943) can0 0621401A#0005010080000000
(1517155191.513799) can0 04214001#0081903D00000000
(1517155191.516658) can0 04294001#0101000043000000
(1517155191.519518) can0 06214000#21004800001C0B00
(1517155191.522463) can0 08094021#0000400000000000
(1517155191.524659) can0 06254000#00000000
(1517155191.527198) can0 0A194005#A2151D49466800
(1517155191.532861) can0 06314000#4000000000000000
(1517155191.542339) can0 063D4000#7B4D0000
(1517155191.551797) can0 06354000#0000
(1517155191.563115) can0 02294000#0000000002000000
(1517155191.565969) can0 04214001#0081903D00000000
(1517155191.568888) can0 04214006#0000000000000000
(1517155191.571756) can0 04294001#0101000043000000
(1517155191.574648) can0 0A014021#4000000000000002
(1517155191.577106) can0 0A114005#420415000000
(1517155191.592033) can0 04394000#00000000
(1517155191.594910) can0 0A014021#5000000000000002
(1517155191.604352) can0 0C194003#055839684409A300
(1517155191.613117) can0 04214001#0081903D00000000
(1517155191.615964) can0 04294001#0101000043000000
(1517155191.621964) can0 06314005#0400000000000000
(1517155191.662904) can0 04214001#0081903D00000000
(1517155191.665813) can0 04214006#0000000000000000
(1517155191.668671) can0 04294001#0101000043000000
(1517155191.691837) can0 04394000#00000000
(1517155191.704373) can0 0C114003#05583D0042001B90
(1517155191.713155) can0 04214001#0081903D00000000
(1517155191.716106) can0 04294001#0101000043000000
(1517155191.728911) can0 0A394021#0028000000000000
(1517155191.733108) can0 08194003#C0
(1517155191.752073) can0 02214000#000000000000
(1517155191.760782) can0 0621401A#0005010080000000
(1517155191.763639) can0 04214001#0081903D00000000
(1517155191.766558) can0 04214006#0000000000000000
(1517155191.769417) can0 04294001#0101000043000000
(1517155191.772262) can0 06214000#21004800001C0B00
(1517155191.774455) can0 06254000#00000000
(1517155191.782760) can0 06314000#4000000000000000
(1517155191.791757) can0 04394000#00000000
(1517155191.804438) can0 0C2D4003#1C01820000000000
(1517155191.812883) can0 04214001#0081903D00000000
(1517155191.815738) can0 04294001#0101000043000000
(1517155191.862477) can0 04214001#0081903D00000000
(1517155191.865385) can0 04214006#0000000000000000
(1517155191.868244) can0 04294001#0101000043000000
(1517155191.891469) can0 04394000#00000000
(1517155191.904403) can0 0C394003#019100920A000000
(1517155191.913046) can0 04214001#0081903D00000000
(1517155191.915898) can0 04294001#0101000043000000
(1517155191.962460) can0 04214001#0081903D00000000
(1517155191.965372) can0 04214006#0000000000000000
(1517155191.968231) can0 04294001#0101000043000000
(1517155191.991412) can0 04394000#00000000
(1517155192.001908) can0 02214000#000000000000
(1517155192.004766) can0 06314003#2010700002080000
(1517155192.011009) can0 0621401A#0005010080000000
(1517155192.013861) can0 04214001#0081903D00000000
(1517155192.016723) can0 04294001#0101000043000000
(1517155192.019560) can0 06214000#21004800001C0B00
(1517155192.021766) can0 06254000#00000000
(1517155192.032031) can0 06314000#4000000000000000
(1517155192.041483) can0 063D4000#7B4D0000
(1517155192.050802) can0 06354000#0000
(1517155192.062277) can0 04214001#0081903D00000000
(1517155192.065195) can0 04214006#0000000000000000
(1517155192.068053) can0 04294001#0101000043000000
(1517155192.091138) can0 04394000#00000000
(1517155192.112673) can0 04214001#0081903D00000000
(1517155192.115567) can0 04294001#0101000043000000
(1517155192.121525) can0 06314005#0400000000000000
(1517155192.162064) can0 04214001#0081903D00000000
(1517155192.164976) can0 04214006#0000000000000000
(1517155192.167834) can0 04294001#0101000043000000
(1517155192.191021) can0 04394000#00000000
(1517155192.212517) can0 04214001#0081903D00000000
(1517155192.215369) can0 04294001#0101000043000000
(1517155192.236860) can0 06314021#0000000000000080
(1517155192.251198) can0 02214000#000000000000
(1517155192.260462) can0 0621401A#0005010080000000
(1517155192.263321) can0 04214001#0081903D00000000
(1517155192.266278) can0 04214006#0000000000000000
(1517155192.269138) can0 04294001#0101000043000000
(1517155192.271985) can0 06214000#21004800001C0B00
(1517155192.274217) can0 06254000#00000000
(1517155192.282003) can0 06314000#4000000000000000
(1517155192.290820) can0 04394000#00000000
(1517155192.304018) can0 0C214003#090408082019
(1517155192.312582) can0 04214001#0081903D00000000
(1517155192.315433) can0 04294001#0101000043000000
(1517155192.361670) can0 04214001#0081903D00000000
(1517155192.364593) can0 04214006#0000000000000000
(1517155192.367447) can0 04294001#0101000043000000
(1517155192.390613) can0 04394000#00000000
(1517155192.404309) can0 0C014003#0551D9CB88760000
(1517155192.412208) can0 04214001#0081903D00000000
(1517155192.415063) can0 04294001#0101000043000000
(1517155192.461589) can0 04214001#0081903D00000000
(1517155192.464496) can0 04214006#0000000000000000
(1517155192.467355) can0 04294001#0101000043000000
(1517155192.479060) can0 0E094000#001E0400106B
(1517155192.480857) can0 0E094021#001E
(1517155192.483334) can0 0E094003#000E
(1517155192.485131) can0 0E094005#0002
(1517155192.489467) can0 0E09401A#000E
(1517155192.491655) can0 04394000#00000000
(1517155192.501033) can0 02214000#000000000000
(1517155192.504407) can0 06314003#2010700002080000
(1517155192.510588) can0 0621401A#0005010080000000
(1517155192.513441) can0 04214001#0081903D00000000
(1517155192.516300) can0 04294001#0101000043000000
(1517155192.519139) can0 06214000#21004800001C0B00
(1517155192.521682) can0 0A194005#A2151D49466800
(1517155192.523877) can0 06254000#00000000
(1517155192.526816) can0 08094021#0000400000000000
(1517155192.531201) can0 06314000#4000000000000000
(1517155192.540739) can0 063D4000#7B4D0000
(1517155192.549954) can0 06354000#0000
(1517155192.561500) can0 02294000#0000000002000000
(1517155192.564350) can0 04214001#0081903D00000000
(1517155192.567290) can0 04214006#0000000000000000
(1517155192.570150) can0 04294001#0101000043000000
(1517155192.573056) can0 0A014021#4000000000000002
(1517155192.575507) can0 0A114005#420415000000
(1517155192.590310) can0 04394000#00000000
(1517155192.593186) can0 0A014021#5000000000000002
(1517155192.604327) can0 0C194003#055839684409A300
(1517155192.611931) can0 04214001#0081903D00000000
(1517155192.614783) can0 04294001#0101000043000000
(1517155192.621104) can0 06314005#0400000000000000
(1517155192.661199) can0 04214001#0081903D00000000
(1517155192.664154) can0 04214006#0000000000000000
(1517155192.667033) can0 04294001#0101000043000000
(1517155192.690197) can0 04394000#00000000
(1517155192.704378) can0 0C114003#05583D0042001B90
(1517155192.711892) can0 04214001#0081903D00000000
(1517155192.714746) can0 04294001#0101000043000000
(1517155192.750411) can0 02214000#000000000000
(1517155192.753281) can0 0A394021#0028000000000000
(1517155192.758080) can0 08194003#C0
(1517155192.760943) can0 0621401A#0005010080000000
(1517155192.763796) can0 04214001#0081903D00000000
(1517155192.766717) can0 04214006#0000000000000000
(1517155192.769575) can0 04294001#0101000043000000
(1517155192.772426) can0 06214000#21004800001C0B00
(1517155192.774616) can0 06254000#00000000
(1517155192.781220) can0 06314000#4000000000000000
(1517155192.790034) can0 04394000#00000000
(1517155192.804442) can0 0C2D4003#1C01820000000000
(1517155192.811577) can0 04214001#0081903D00000000
(1517155192.814432) can0 04294001#0101000043000000
(1517155192.860813) can0 04214001#0081903D00000000
(1517155192.863728) can0 04214006#0000000000000000
(1517155192.866603) can0 04294001#0101000043000000
(1517155192.889916) can0 04394000#00000000
(1517155192.904384) can0 0C394003#019100920A000000
(1517155192.910501) can0 04214001#0081903D00000000
(1517155192.913359) can0 04294001#0101000043000000
(1517155192.960631) can0 04214001#0081903D00000000
(1517155192.963556) can0 04214006#0000000000000000
(1517155192.966434) can0 04294001#0101000043000000
(1517155192.989678) can0 04394000#00000000
(1517155193.000233) can0 02214000#000000000000
(1517155193.004410) can0 06314003#2010700002080000
(1517155193.010328) can0 04214001#0081903D00000000
(1517155193.013192) can0 0621401A#0005010080000000
(1517155193.016044) can0 04294001#0101000043000000
(1517155193.018902) can0 06214000#21004800001C0B00
(1517155193.021105) can0 06254000#00000000
(1517155193.030240) can0 06314000#4000000000000000
(1517155193.039904) can0 063D4000#7B4D0000
(1517155193.049322) can0 06354000#0000
(1517155193.060460) can0 04214001#0081903D00000000
(1517155193.063375) can0 04214006#0000000000000000
(1517155193.066254) can0 04294001#0101000043000000
(1517155193.089582) can0 04394000#00000000
(1517155193.110039) can0 04214001#0081903D00000000
(1517155193.112931) can0 04294001#0101000043000000
(1517155193.120667) can0 06314005#0400000000000000
(1517155193.160305) can0 04214001#0081903D00000000
(1517155193.163219) can0 04214006#0000000000000000
(1517155193.166119) can0 04294001#0101000043000000
(1517155193.189358) can0 04394000#00000000
(1517155193.209872) can0 04214001#0081903D00000000
(1517155193.212735) can0 04294001#0101000043000000
(1517155193.237511) can0 06314021#0000000000000080
(1517155193.249449) can0 02214000#000000000000
(1517155193.259741) can0 0621401A#0005010080000000
(1517155193.262602) can0 04214001#0081903D00000000
(1517155193.265518) can0 04214006#0000000000000000
(1517155193.268377) can0 04294001#0101000043000000
(1517155193.271222) can0 06214000#21004800001C0B00
(1517155193.273415) can0 06254000#00000000
(1517155193.280394) can0 06314000#4000000000000000
(1517155193.289024) can0 04394000#00000000
(1517155193.304008) can0 0C214003#090408082019
(1517155193.309815) can0 04214001#0081903D00000000
(1517155193.312718) can0 04294001#0101000043000000
(1517155193.359916) can0 04214001#0081903D00000000
(1517155193.362828) can0 04214006#0000000000000000
(1517155193.365686) can0 04294001#0101000043000000
(1517155193.388863) can0 04394000#00000000
(1517155193.404309) can0 0C014003#0551D9CB88760000
(1517155193.409460) can0 04214001#0081903D00000000
(1517155193.412344) can0 04294001#0101000043000000
(1517155193.459681) can0 04214001#0081903D00000000
(1517155193.462595) can0 04214006#0000000000000000
(1517155193.465451) can0 04294001#0101000043000000
(1517155193.475735) can0 0E094000#001E0400106B
(1517155193.477529) can0 0E094021#001E
(1517155193.479307) can0 0E094003#000E
(1517155193.481072) can0 0E09401A#000E
(1517155193.484244) can0 0E094005#0002
(1517155193.488662) can0 04394000#00000000
(1517155193.499406) can0 02214000#000000000000
(1517155193.504419) can0 06314003#2010700002080000
(1517155193.509323) can0 04214001#0081903D00000000
(1517155193.512190) can0 0621401A#0005010080000000
(1517155193.515039) can0 04294001#0101000043000000
(1517155193.517898) can0 06214000#21004800001C0B00
(1517155193.520097) can0 06254000#00000000
(1517155193.523044) can0 08094021#0000400000000000
(1517155193.525575) can0 0A194005#A2151D49466800
(1517155193.529415) can0 06314000#4000000000000000
(1517155193.538838) can0 063D4000#7B4D0000
(1517155193.548214) can0 06354000#0000
(1517155193.559616) can0 02294000#0000000002000000
(1517155193.562474) can0 04214001#0081903D00000000
(1517155193.565390) can0 04214006#0000000000000000
(1517155193.568250) can0 04294001#0101000043000000
(1517155193.570713) can0 0A114005#420415000000
(1517155193.573608) can0 0A014021#4000000000000002
(1517155193.588570) can0 04394000#00000000
(1517155193.592710) can0 0A014021#5000000000000002
(1517155193.604329) can0 0C194003#055839684409A300
(1517155193.609104) can0 04214001#0081903D00000000
(1517155193.611969) can0 04294001#0101000043000000
(1517155193.620237) can0 06314005#0400000000000000
(1517155193.659482) can0 04214001#0081903D00000000
(1517155193.662396) can0 04214006#0000000000000000
(1517155193.665272) can0 04294001#0101000043000000
(1517155193.688315) can0 04394000#00000000
(1517155193.704355) can0 0C114003#05583D0042001B90
(1517155193.708950) can0 04214001#0081903D00000000
(1517155193.711816) can0 04294001#0101000043000000
(1517155193.748597) can0 02214000#000000000000
(1517155193.759131) can0 04214001#0081903D00000000
(1517155193.762045) can0 04214006#0000000000000000
(1517155193.764901) can0 04294001#0101000043000000
(1517155193.767739) can0 06214000#21004800001C0B00
(1517155193.770604) can0 0621401A#0005010080000000
(1517155193.772798) can0 06254000#00000000
(1517155193.775678) can0 0A394021#0028000000000000
(1517155193.779317) can0 06314000#4000000000000000
(1517155193.780922) can0 08194003#C0
(1517155193.788298) can0 04394000#00000000
(1517155193.804420) can0 0C2D4003#1C01820000000000
(1517155193.808758) can0 04214001#0081903D00000000
(1517155193.811623) can0 04294001#0101000043000000
(1517155193.858996) can0 04214001#0081903D00000000
(1517155193.861912) can0 04214006#0000000000000000
(1517155193.864769) can0 04294001#0101000043000000
(1517155193.888011) can0 04394000#00000000
(1517155193.904369) can0 0C394003#019100920A000000
(1517155193.908603) can0 04214001#0081903D00000000
(1517155193.911471) can0 04294001#0101000043000000
(1517155193.958793) can0 04214001#0081903D00000000
(1517155193.961722) can0 04214006#0000000000000000
(1517155193.964577) can0 04294001#0101000043000000
(1517155193.987936) can0 04394000#00000000
(1517155193.998398) can0 02214000#000000000000
(1517155194.004395) can0 06314003#2010700002080000
(1517155194.008450) can0 04214001#0081903D00000000
(1517155194.011317) can0 04294001#0101000043000000
(1517155194.014150) can0 06214000#21004800001C0B00
(1517155194.017008) can0 0621401A#0005010080000000
(1517155194.019207) can0 06254000#00000000
(1517155194.028553) can0 06314000#4000000000000000
(1517155194.037990) can0 063D4000#7B4D0000
(1517155194.047308) can0 06354000#0000
(1517155194.058730) can0 04214001#0081903D00000000
(1517155194.061645) can0 04214006#0000000000000000
(1517155194.064502) can0 04294001#0101000043000000
(1517155194.087665) can0 04394000#00000000
(1517155194.108318) can0 04214001#0081903D00000000
(1517155194.111184) can0 04294001#0101000043000000
(1517155194.119808) can0 06314005#0400000000000000
(1517155194.158554) can0 04214001#0081903D00000000
(1517155194.161467) can0 04214006#0000000000000000
(1517155194.164322) can0 04294001#0101000043000000
(1517155194.187546) can0 04394000#00000000
(1517155194.208141) can0 04214001#0081903D00000000
(1517155194.210999) can0 04294001#0101000043000000
(1517155194.238183) can0 06314021#0000000000000080
(1517155194.247685) can0 02214000#000000000000
(1517155194.258297) can0 04214001#0081903D00000000
(1517155194.261216) can0 04214006#0000000000000000
(1517155194.264070) can0 04294001#0101000043000000
(1517155194.266928) can0 0621401A#0005010080000000
(1517155194.269768) can0 06214000#21004800001C0B00
(1517155194.271972) can0 06254000#00000000
(1517155194.278508) can0 06314000#4000000000000000
(1517155194.287329) can0 04394000#00000000
(1517155194.303995) can0 0C214003#090408082019
(1517155194.308006) can0 04214001#0081903D00000000
(1517155194.310870) can0 04294001#0101000043000000
(1517155194.358151) can0 04214001#0081903D00000000
(1517155194.361066) can0 04214006#0000000000000000
(1517155194.363916) can0 04294001#0101000043000000
(1517155194.387117) can0 04394000#00000000
(1517155194.404295) can0 0C014003#0551D9CB88760000
(1517155194.407772) can0 04214001#0081903D00000000
(1517155194.410636) can0 04294001#0101000043000000
(1517155194.458030) can0 04214001#0081903D00000000
(1517155194.460947) can0 04214006#0000000000000000
(1517155194.463804) can0 04294001#0101000043000000
(1517155194.474009) can0 0E094000#001E0400106B
(1517155194.475800) can0 0E094021#001E
(1517155194.477778) can0 0E09401A#000E
(1517155194.479558) can0 0E094003#000E
(1517155194.483380) can0 0E094005#0002
(1517155194.487033) can0 04394000#00000000
(1517155194.497518) can0 02214000#000000000000
(1517155194.504397) can0 06314003#2010700002080000
(1517155194.507733) can0 04214001#0081903D00000000
(1517155194.510598) can0 04294001#0101000043000000
(1517155194.513432) can0 06214000#21004800001C0B00
(1517155194.516289) can0 0621401A#0005010080000000
(1517155194.518488) can0 06254000#00000000
(1517155194.521030) can0 0A194005#A2151D49466800
(1517155194.523968) can0 08094021#0000400000000000
(1517155194.527725) can0 06314000#4000000000000000
(1517155194.537251) can0 063D4000#7B4D0000
(1517155194.546429) can0 06354000#0000
(1517155194.557968) can0 02294000#0000000002000000
(1517155194.560891) can0 04214001#0081903D00000000
(1517155194.563821) can0 04214006#0000000000000000
(1517155194.566681) can0 04294001#0101000043000000
(1517155194.569139) can0 0A114005#420415000000
(1517155194.572405) can0 0A014021#4000000000000002
(1517155194.586760) can0 04394000#00000000
(1517155194.591445) can0 0A014021#5000000000000002
(1517155194.604302) can0 0C194003#055839684409A300
(1517155194.607417) can0 04214001#0081903D00000000
(1517155194.610275) can0 04294001#0101000043000000
(1517155194.619392) can0 06314005#0400000000000000
(1517155194.657592) can0 04214001#0081903D00000000
(1517155194.660509) can0 04214006#0000000000000000
(1517155194.663383) can0 04294001#0101000043000000
(1517155194.686698) can0 04394000#00000000
(1517155194.704342) can0 0C114003#05583D0042001B90
(1517155194.707261) can0 04214001#0081903D00000000
(1517155194.710118) can0 04294001#0101000043000000
(1517155194.746819) can0 02214000#000000000000
(1517155194.757414) can0 04214001#0081903D00000000
(1517155194.760274) can0 0621401A#0005010080000000
(1517155194.763193) can0 04214006#0000000000000000
(1517155194.766048) can0 04294001#0101000043000000
(1517155194.768934) can0 06214000#21004800001C0B00
(1517155194.771137) can0 06254000#00000000
(1517155194.777506) can0 06314000#4000000000000000
(1517155194.786427) can0 04394000#00000000
(1517155194.797052) can0 0A394021#0028000000000000
(1517155194.804410) can0 0C2D4003#1C01820000000000
(1517155194.807266) can0 04214001#0081903D00000000
(1517155194.810145) can0 04294001#0101000043000000
(1517155194.813169) can0 08194003#C0
(1517155194.857228) can0 04214001#0081903D00000000
(1517155194.860138) can0 04214006#0000000000000000
(1517155194.863002) can0 04294001#0101000043000000
(1517155194.886218) can0 04394000#00000000
(1517155194.904360) can0 0C394003#019100920A000000
(1517155194.907213) can0 04214001#0081903D00000000
(1517155194.910071) can0 04294001#0101000043000000
(1517155194.957074) can0 04214001#0081903D00000000
(1517155194.960025) can0 04214006#0000000000000000
(1517155194.962890) can0 04294001#0101000043000000
(1517155194.986053) can0 04394000#00000000
(1517155194.996747) can0 02214000#000000000000
(1517155195.004383) can0 06314003#2010700002080000
(1517155195.007243) can0 04214001#0081903D00000000
(1517155195.010099) can0 04294001#0101000043000000
(1517155195.012946) can0 06214000#21004800001C0B00
(1517155195.015797) can0 0621401A#0005010080000000
(1517155195.017996) can0 06254000#00000000
(1517155195.026839) can0 06314000#4000000000000000
(1517155195.036222) can0 063D4000#7B4D0000
(1517155195.045557) can0 06354000#0000
(1517155195.056896) can0 04214001#0081903D00000000
(1517155195.059829) can0 04214006#0000000000000000
(1517155195.062693) can0 04294001#0101000043000000
(1517155195.085895) can0 04394000#00000000
(1517155195.106531) can0 04214001#0081903D00000000
(1517155195.109383) can0 04294001#0101000043000000
(1517155195.118959) can0 06314005#0400000000000000
(1517155195.156719) can0 04214001#0081903D00000000
(1517155195.159631) can0 04214006#0000000000000000
(1517155195.162502) can0 04294001#0101000043000000
(1517155195.185690) can0 04394000#00000000
(1517155195.206438) can0 04214001#0081903D00000000
(1517155195.209285) can0 04294001#0101000043000000
(1517155195.238808) can0 06314021#0000000000000080
(1517155195.245926) can0 02214000#000000000000
(1517155195.256689) can0 04214001#0081903D00000000
(1517155195.259539) can0 0621401A#0005010080000000
(1517155195.262465) can0 04214006#0000000000000000
(1517155195.265319) can0 04294001#0101000043000000
(1517155195.268198) can0 06214000#21004800001C0B00
(1517155195.270398) can0 06254000#00000000
(1517155195.276602) can0 06314000#4000000000000000
(1517155195.285521) can0 04394000#00000000
(1517155195.303979) can0 0C214003#090408082019
(1517155195.306838) can0 04214001#0081903D00000000
(1517155195.309794) can0 04294001#0101000043000000
(1517155195.356354) can0 04214001#0081903D00000000
(1517155195.359266) can0 04214006#0000000000000000
(1517155195.362130) can0 04294001#0101000043000000
(1517155195.385491) can0 04394000#00000000
(1517155195.404292) can0 0C014003#0551D9CB88760000
(1517155195.407146) can0 04214001#0081903D00000000
(1517155195.410022) can0 04294001#0101000043000000
(1517155195.456226) can0 04214001#0081903D00000000
(1517155195.459159) can0 04214006#0000000000000000
(1517155195.462022) can0 04294001#0101000043000000
(1517155195.472220) can0 0E094000#001E0400106B
(1517155195.474056) can0 0E094021#001E
(1517155195.477412) can0 0E09401A#000E
(1517155195.479191) can0 0E094003#000E
(1517155195.482531) can0 0E094005#0002
(1517155195.485289) can0 04394000#00000000
(1517155195.495814) can0 02214000#000000000000
(1517155195.504392) can0 06314003#2010700002080000
(1517155195.507247) can0 04214001#0081903D00000000
(1517155195.510106) can0 04294001#0101000043000000
(1517155195.512952) can0 06214000#21004800001C0B00
(1517155195.515803) can0 0621401A#0005010080000000
(1517155195.518003) can0 06254000#00000000
(1517155195.520540) can0 0A194005#A2151D49466800
(1517155195.524183) can0 08094021#0000400000000000
(1517155195.527120) can0 06314000#4000000000000000
(1517155195.535485) can0 063D4000#7B4D0000
(1517155195.544683) can0 06354000#0000
(1517155195.556225) can0 02294000#0000000002000000
(1517155195.559077) can0 04214001#0081903D00000000
(1517155195.562048) can0 04214006#0000000000000000
(1517155195.564882) can0 04294001#0101000043000000
(1517155195.568111) can0 0A114005#420415000000
(1517155195.573058) can0 0A014021#4000000000000002
(1517155195.585012) can0 04394000#00000000
(1517155195.592055) can0 0A014021#5000000000000002
(1517155195.604296) can0 0C194003#055839684409A300
(1517155195.607154) can0 04214001#0081903D00000000
(1517155195.610049) can0 04294001#0101000043000000
(1517155195.618532) can0 06314005#0400000000000000
(1517155195.655847) can0 04214001#0081903D00000000
(1517155195.658757) can0 04214006#0000000000000000
(1517155195.661621) can0 04294001#0101000043000000
(1517155195.684955) can0 04394000#00000000
(1517155195.704342) can0 0C114003#05583D0042001B90
(1517155195.707193) can0 04214001#0081903D00000000
(1517155195.710090) can0 04294001#0101000043000000
(1517155195.745071) can0 02214000#000000000000
(1517155195.755652) can0 04214001#0081903D00000000
(1517155195.758564) can0 04214006#0000000000000000
(1517155195.761430) can0 04294001#0101000043000000
(1517155195.764264) can0 06214000#21004800001C0B00
(1517155195.767122) can0 0621401A#0005010080000000
(1517155195.769322) can0 06254000#00000000
(1517155195.775726) can0 06314000#4000000000000000
(1517155195.784682) can0 04394000#00000000
(1517155195.804408) can0 0C2D4003#1C01820000000000
(1517155195.807260) can0 04214001#0081903D00000000
(1517155195.810117) can0 04294001#0101000043000000
(1517155195.855504) can0 04214001#0081903D00000000
(1517155195.858453) can0 04214006#0000000000000000
(1517155195.861315) can0 04294001#0101000043000000
(1517155195.884511) can0 04394000#00000000
(1517155195.904348) can0 0C394003#019100920A000000
(1517155195.907206) can0 04214001#0081903D00000000
(1517155195.910064) can0 04294001#0101000043000000
(1517155195.955305) can0 04214001#0081903D00000000
(1517155195.958218) can0 04214006#0000000000000000
(1517155195.965059) can0 04294001#0101000043000000
(1517155195.984341) can0 04394000#00000000
(1517155195.995078) can0 02214000#000000000000
(1517155196.004377) can0 06314003#2010700002080000
(1517155196.007230) can0 04214001#0081903D00000000
(1517155196.010088) can0 0621401A#0005010080000000
(1517155196.012953) can0 04294001#0101000043000000
(1517155196.015787) can0 06214000#21004800001C0B00
(1517155196.017987) can0 06254000#00000000
(1517155196.025051) can0 06314000#4000000000000000
(1517155196.034550) can0 063D4000#7B4D0000
(1517155196.043853) can0 06354000#0000
(1517155196.055109) can0 04214001#0081903D00000000
(1517155196.065091) can0 04214006#0000000000000000
(1517155196.067945) can0 04294001#0101000043000000
(1517155196.084223) can0 04394000#00000000
(1517155196.104824) can0 04214001#0081903D00000000
(1517155196.107679) can0 04294001#0101000043000000
(1517155196.118216) can0 06314005#0400000000000000
(1517155196.164690) can0 04214001#0081903D00000000
(1517155196.167600) can0 04214006#0000000000000000
(1517155196.170456) can0 04294001#0101000043000000
(1517155196.183984) can0 04394000#00000000
(1517155196.204616) can0 04214001#0081903D00000000
(1517155196.207475) can0 04294001#0101000043000000
(1517155196.239458) can0 06314021#0000000000000080
(1517155196.244220) can0 02214000#000000000000
(1517155196.254761) can0 06214000#21004800001C0B00
(1517155196.257710) can0 0621401A#0005010080000000
(1517155196.264671) can0 04214001#0081903D00000000
(1517155196.267590) can0 04214006#0000000000000000
(1517155196.270448) can0 04294001#0101000043000000
(1517155196.272648) can0 06254000#00000000
(1517155196.275608) can0 06314000#4000000000000000
(1517155196.283851) can0 04394000#00000000
(1517155196.303984) can0 0C214003#090408082019
(1517155196.306829) can0 04214001#0081903D00000000
(1517155196.309746) can0 04294001#0101000043000000
(1517155196.364329) can0 04214001#0081903D00000000
(1517155196.367237) can0 04214006#0000000000000000
(1517155196.370096) can0 04294001#0101000043000000
(1517155196.383658) can0 04394000#00000000
(1517155196.404320) can0 04214001#0081903D00000000
(1517155196.407172) can0 04294001#0101000043000000
(1517155196.409931) can0 0C014003#0551D9CB88760000
(1517155196.464219) can0 04214001#0081903D00000000
(1517155196.467125) can0 04214006#0000000000000000
(1517155196.469982) can0 04294001#0101000043000000
(1517155196.472548) can0 0E094000#001E0400106B
(1517155196.474361) can0 0E094021#001E
(1517155196.476759) can0 0E09401A#000E
(1517155196.478540) can0 0E094003#000E
(1517155196.481683) can0 0E094005#0002
(1517155196.483862) can0 04394000#00000000
(1517155196.494202) can0 02214000#000000000000
(1517155196.504198) can0 04214001#0081903D00000000
(1517155196.507057) can0 04294001#0101000043000000
(1517155196.509893) can0 06214000#21004800001C0B00
(1517155196.512759) can0 0621401A#0005010080000000
(1517155196.514951) can0 06254000#00000000
(1517155196.517811) can0 06314003#2010700002080000
(1517155196.520348) can0 0A194005#A2151D49466800
(1517155196.524153) can0 06314000#4000000000000000
(1517155196.527088) can0 08094021#0000400000000000
(1517155196.533711) can0 063D4000#7B4D0000
(1517155196.542971) can0 06354000#0000
(1517155196.554390) can0 02294000#0000000002000000
(1517155196.563967) can0 04214001#0081903D00000000
(1517155196.566925) can0 04214006#0000000000000000
(1517155196.569783) can0 04294001#0101000043000000
(1517155196.572248) can0 0A114005#420415000000
(1517155196.575141) can0 0A014021#4000000000000002
(1517155196.583346) can0 04394000#00000000
(1517155196.593624) can0 0A014021#5000000000000002
(1517155196.604003) can0 04214001#0081903D00000000
(1517155196.606859) can0 04294001#0101000043000000
(1517155196.609638) can0 0C194003#055839684409A300
(1517155196.617677) can0 06314005#0400000000000000
(1517155196.663935) can0 04214001#0081903D00000000
(1517155196.666851) can0 04214006#0000000000000000
(1517155196.669706) can0 04294001#0101000043000000
(1517155196.683149) can0 04394000#00000000
(1517155196.704113) can0 04214001#0081903D00000000
(1517155196.706959) can0 04294001#0101000043000000
(1517155196.709777) can0 0C114003#05583D0042001B90
(1517155196.743359) can0 02214000#000000000000
(1517155196.753941) can0 06214000#21004800001C0B00
(1517155196.757311) can0 0621401A#0005010080000000
(1517155196.763613) can0 04214001#0081903D00000000
(1517155196.766528) can0 04214006#0000000000000000
(1517155196.769386) can0 04294001#0101000043000000
(1517155196.771590) can0 06254000#00000000
(1517155196.774546) can0 06314000#4000000000000000
(1517155196.782968) can0 04394000#00000000
(1517155196.803765) can0 04214001#0081903D00000000
(1517155196.806642) can0 0C2D4003#1C01820000000000
(1517155196.813867) can0 04294001#0101000043000000
(1517155196.863496) can0 04214001#0081903D00000000
(1517155196.866420) can0 04214006#0000000000000000
(1517155196.869275) can0 04294001#0101000043000000
(1517155196.882904) can0 04394000#00000000
(1517155196.903738) can0 04214001#0081903D00000000
(1517155196.906569) can0 0C394003#019100920A000000
(1517155196.913652) can0 04294001#0101000043000000
(1517155196.963330) can0 04214001#0081903D00000000
(1517155196.966241) can0 04214006#0000000000000000
(1517155196.969120) can0 04294001#0101000043000000
(1517155196.982680) can0 04394000#00000000
(1517155196.993264) can0 02214000#000000000000
(1517155197.003360) can0 06214000#21004800001C0B00
(1517155197.006215) can0 06314003#2010700002080000
(1517155197.009072) can0 0621401A#0005010080000000
(1517155197.013498) can0 04214001#0081903D00000000
(1517155197.016391) can0 04294001#0101000043000000
(1517155197.018591) can0 06254000#00000000
(1517155197.023315) can0 06314000#4000000000000000
(1517155197.032933) can0 063D4000#7B4D0000
(1517155197.042069) can0 06354000#0000
(1517155197.063133) can0 04214001#0081903D00000000
(1517155197.066048) can0 04214006#0000000000000000
(1517155197.068905) can0 04294001#0101000043000000
(1517155197.082536) can0 04394000#00000000
(1517155197.113293) can0 04214001#0081903D00000000
(1517155197.116140) can0 04294001#0101000043000000
(1517155197.119056) can0 06314005#0400000000000000
(1517155197.162932) can0 04214001#0081903D00000000
(1517155197.165852) can0 04214006#0000000000000000
(1517155197.168710) can0 04294001#0101000043000000
(1517155197.182294) can0 04394000#00000000
(1517155197.213148) can0 04214001#0081903D00000000
(1517155197.216002) can0 04294001#0101000043000000
(1517155197.240111) can0 06314021#0000000000000080
(1517155197.242645) can0 02214000#000000000000
(1517155197.253366) can0 06214000#21004800001C0B00
(1517155197.257378) can0 0621401A#0005010080000000
(1517155197.262838) can0 04214001#0081903D00000000
(1517155197.265756) can0 04214006#0000000000000000
(1517155197.268615) can0 04294001#0101000043000000
(1517155197.270821) can0 06254000#00000000
(1517155197.273778) can0 06314000#4000000000000000
(1517155197.282098) can0 04394000#00000000
(1517155197.303968) can0 0C214003#090408082019
(1517155197.313001) can0 04214001#0081903D00000000
(1517155197.315854) can0 04294001#0101000043000000
(1517155197.362596) can0 04214001#0081903D00000000
(1517155197.365507) can0 04214006#0000000000000000
(1517155197.368364) can0 04294001#0101000043000000
(1517155197.381987) can0 04394000#00000000
(1517155197.404264) can0 0C014003#0551D9CB88760000
(1517155197.412788) can0 04214001#0081903D00000000
(1517155197.415700) can0 04294001#0101000043000000
(1517155197.462416) can0 04214001#0081903D00000000
(1517155197.465333) can0 04214006#0000000000000000
(1517155197.468192) can0 04294001#0101000043000000
(1517155197.470762) can0 0E094000#001E0400106B
(1517155197.472552) can0 0E094021#001E
(1517155197.474331) can0 0E094003#000E
(1517155197.476092) can0 0E09401A#000E
(1517155197.480813) can0 0E094005#0002
(1517155197.482987) can0 04394000#00000000
(1517155197.492312) can0 02214000#000000000000
(1517155197.502376) can0 06214000#21004800001C0B00
(1517155197.505227) can0 06314003#2010700002080000
(1517155197.508089) can0 0621401A#0005010080000000
(1517155197.512712) can0 04214001#0081903D00000000
(1517155197.515564) can0 04294001#0101000043000000
(1517155197.518100) can0 0A194005#A2151D49466800
(1517155197.520300) can0 06254000#00000000
(1517155197.523244) can0 06314000#4000000000000000
(1517155197.526182) can0 08094021#0000400000000000
(1517155197.531908) can0 063D4000#7B4D0000
(1517155197.541204) can0 06354000#0000
(1517155197.552743) can0 02294000#0000000002000000
(1517155197.562241) can0 04214001#0081903D00000000
(1517155197.565156) can0 04214006#0000000000000000
(1517155197.568015) can0 04294001#0101000043000000
(1517155197.570473) can0 0A114005#420415000000
(1517155197.574353) can0 0A014021#4000000000000002
(1517155197.581576) can0 04394000#00000000
(1517155197.593321) can0 0A014021#5000000000000002
(1517155197.604278) can0 0C194003#055839684409A300
(1517155197.612456) can0 04214001#0081903D00000000
(1517155197.615371) can0 04294001#0101000043000000
(1517155197.618288) can0 06314005#0400000000000000
(1517155197.662072) can0 04214001#0081903D00000000
(1517155197.665004) can0 04214006#0000000000000000
(1517155197.667862) can0 04294001#0101000043000000
(1517155197.681366) can0 04394000#00000000
(1517155197.704323) can0 0C114003#05583D0042001B90
(1517155197.712412) can0 04214001#0081903D00000000
(1517155197.715321) can0 04294001#0101000043000000
(1517155197.741601) can0 02214000#000000000000
(1517155197.752302) can0 06214000#21004800001C0B00
(1517155197.756957) can0 0621401A#0005010080000000
(1517155197.761894) can0 04214001#0081903D00000000
(1517155197.764852) can0 04214006#0000000000000000
(1517155197.767710) can0 04294001#0101000043000000
(1517155197.769910) can0 06254000#00000000
(1517155197.773277) can0 06314000#4000000000000000
(1517155197.781195) can0 04394000#00000000
(1517155197.804376) can0 0C2D4003#1C01820000000000
(1517155197.812173) can0 04214001#0081903D00000000
(1517155197.815069) can0 04294001#0101000043000000
(1517155197.861713) can0 04214001#0081903D00000000
(1517155197.864623) can0 04214006#0000000000000000
(1517155197.867482) can0 04294001#0101000043000000
(1517155197.881109) can0 04394000#00000000
(1517155197.904348) can0 0C394003#019100920A000000
(1517155197.911885) can0 04214001#0081903D00000000
(1517155197.914738) can0 04294001#0101000043000000
(1517155197.961565) can0 04214001#0081903D00000000
(1517155197.964472) can0 04214006#0000000000000000
(1517155197.967331) can0 04294001#0101000043000000
(1517155197.980815) can0 04394000#00000000
(1517155197.991531) can0 02214000#000000000000
(1517155198.001489) can0 06214000#21004800001C0B00
(1517155198.004388) can0 06314003#2010700002080000
(1517155198.007245) can0 0621401A#0005010080000000
(1517155198.011732) can0 04214001#0081903D00000000
(1517155198.014584) can0 04294001#0101000043000000
(1517155198.016782) can0 06254000#00000000
(1517155198.021547) can0 06314000#4000000000000000
(1517155198.031086) can0 063D4000#7B4D0000
(1517155198.040359) can0 06354000#0000
(1517155198.061359) can0 04214001#0081903D00000000
(1517155198.064277) can0 04214006#0000000000000000
(1517155198.067135) can0 04294001#0101000043000000
(1517155198.080701) can0 04394000#00000000
(1517155198.111555) can0 04214001#0081903D00000000
(1517155198.114410) can0 04294001#0101000043000000
(1517155198.117328) can0 06314005#0400000000000000
(1517155198.161174) can0 04214001#0081903D00000000
(1517155198.164083) can0 04214006#0000000000000000
(1517155198.166942) can0 04294001#0101000043000000
(1517155198.180688) can0 04394000#00000000
(1517155198.211526) can0 04214001#0081903D00000000
